!---------------------------------------------------------------------
! ZVRE, 3.52
!---------------------------------------------------------------------
! symbol freq-unit parameter-type data-format keyword impedance-ohm
#        HZ        S              RI          R       50
!---------------------------------------------------------------------
! freq                reS11          imS11           reS21          imS21           reS12          imS12           reS22          imS22           
  9.00000000000E+03 -0.701014        0.277175       0.301398        0.277275       0.298189        0.276248      -0.695725        0.281903     
  4.25897750000E+06 -0.0360275       0.0106448      0.964181       -0.00347617     0.962851       -0.00338266    -0.0238915       0.0107606    
  8.50895500000E+06 -0.0355085       0.00701967     0.963747       -0.0213443      0.962754       -0.0214659     -0.023504        0.00708278   
  1.27589325000E+07 -0.0353901       0.00676619     0.963199       -0.0358565      0.961911       -0.0360209     -0.0233992       0.0068035    
  1.70089100000E+07 -0.0351405       0.00752865     0.962173       -0.0504534      0.961469       -0.0503223     -0.0231605       0.00748156   
  2.12588875000E+07 -0.0347385       0.00871467     0.961278       -0.0638446      0.960332       -0.0638907     -0.0227934       0.00845848   
  2.55088650000E+07 -0.0343983       0.00946955     0.960032       -0.0788529      0.959295       -0.0774088     -0.0224637       0.00949192   
  2.97588425000E+07 -0.0338713       0.0100366      0.95954        -0.0878794      0.958312       -0.0892301     -0.0223348       0.00964315   
  3.40088200000E+07 -0.0336723       0.0101633      0.957888       -0.10273        0.956787       -0.102834      -0.0219848       0.0104956    
  3.82587975000E+07 -0.0332285       0.0110183      0.956145       -0.116018       0.955044       -0.115739      -0.0215811       0.0114048    
  4.25087750000E+07 -0.032862        0.0117247      0.954795       -0.127264       0.953094       -0.128428      -0.0212149       0.0123498    
  4.67587525000E+07 -0.032417        0.0125974      0.952549       -0.140448       0.951438       -0.141918      -0.0206995       0.0131933    
  5.10087300000E+07 -0.0318702       0.0134528      0.950184       -0.154301       0.94952        -0.15478       -0.0202636       0.014082     
  5.52587075000E+07 -0.03124         0.0142357      0.947661       -0.168325       0.946899       -0.167822      -0.0197765       0.0148823    
  5.95086850000E+07 -0.030747        0.0150369      0.945289       -0.181422       0.944519       -0.180333      -0.0193117       0.0156827    
  6.37586625000E+07 -0.03017         0.0157597      0.942568       -0.194101       0.941757       -0.193372      -0.0188817       0.0164991    
  6.80086400000E+07 -0.0295946       0.0164889      0.939898       -0.206815       0.938899       -0.206235      -0.0184029       0.0172856    
  7.22586175000E+07 -0.0290464       0.0171917      0.936431       -0.219458       0.935714       -0.218612      -0.0179876       0.0180865    
  7.65085950000E+07 -0.0284019       0.017914       0.933609       -0.232246       0.932953       -0.231413      -0.0175496       0.0188003    
  8.07585725000E+07 -0.0277655       0.0185282      0.930439       -0.2449         0.929592       -0.244222      -0.0171407       0.0195386    
  8.50085500000E+07 -0.0271051       0.019186       0.926778       -0.257489       0.926117       -0.256807      -0.0167052       0.0203397    
  8.92585275000E+07 -0.0264325       0.0197743      0.922973       -0.269933       0.922345       -0.269338      -0.0162863       0.0211387    
  9.35085050000E+07 -0.0257853       0.0203473      0.919054       -0.282289       0.918468       -0.281535      -0.0158175       0.021916     
  9.77584825000E+07 -0.0250983       0.0209677      0.914971       -0.294296       0.914138       -0.293948      -0.0153904       0.0226739    
  1.02008460000E+08 -0.0244166       0.0215089      0.910823       -0.306656       0.910257       -0.306225      -0.014928        0.0234411    
  1.06258437500E+08 -0.0236825       0.0220592      0.906539       -0.318837       0.905663       -0.318677      -0.0143988       0.0242559    
  1.10508415000E+08 -0.0229634       0.0226091      0.902308       -0.331482       0.901239       -0.33069       -0.0138775       0.0249386    
  1.14758392500E+08 -0.0221691       0.0231003      0.897744       -0.343321       0.896539       -0.34292       -0.0133861       0.0256997    
  1.19008370000E+08 -0.0214399       0.0235675      0.892469       -0.355204       0.891777       -0.354933      -0.0128718       0.0263771    
  1.23258347500E+08 -0.0206123       0.0240136      0.887415       -0.366963       0.886693       -0.367046      -0.0123902       0.0271385    
  1.27508325000E+08 -0.0197775       0.0245433      0.882334       -0.378803       0.881607       -0.378641      -0.0118592       0.0278382    
  1.31758302500E+08 -0.01895         0.0249671      0.876584       -0.390757       0.876274       -0.390569      -0.0113462       0.028546     
  1.36008280000E+08 -0.0180871       0.0253883      0.871145       -0.40254        0.870806       -0.402429      -0.010832        0.0292528    
  1.40258257500E+08 -0.017228        0.0258026      0.865603       -0.414377       0.865238       -0.414052      -0.0103538       0.0299577    
  1.44508235000E+08 -0.0163307       0.0261918      0.859875       -0.42566        0.859256       -0.425597      -0.00982617      0.0306769    
  1.48758212500E+08 -0.0154051       0.0265807      0.85393        -0.437093       0.853321       -0.436959      -0.00925144      0.0314516    
  1.53008190000E+08 -0.0144481       0.0269052      0.847687       -0.448569       0.847164       -0.448498      -0.00870752      0.0322074    
  1.57258167500E+08 -0.0134401       0.0272373      0.841188       -0.459837       0.840995       -0.459724      -0.00814249      0.0329458    
  1.61508145000E+08 -0.0125724       0.0275203      0.834588       -0.471334       0.834513       -0.471002      -0.00748912      0.0337428    
  1.65758122500E+08 -0.0115601       0.0278399      0.828285       -0.482477       0.8279         -0.481996      -0.00683278      0.0344908    
  1.70008100000E+08 -0.0105719       0.0280741      0.821633       -0.493601       0.821232       -0.492968      -0.00611704      0.0352087    
  1.74258077500E+08 -0.00957436      0.0283433      0.814612       -0.50467        0.814142       -0.503899      -0.00539256      0.0358979    
  1.78508055000E+08 -0.00856171      0.0285808      0.807951       -0.515843       0.807259       -0.514661      -0.00470137      0.0366132    
  1.82758032500E+08 -0.00759336      0.0288008      0.800487       -0.526129       0.800145       -0.525524      -0.00396559      0.0372783    
  1.87008010000E+08 -0.00660178      0.028966       0.793145       -0.536955       0.793021       -0.536145      -0.00321549      0.0379111    
  1.91257987500E+08 -0.00555469      0.0291623      0.785828       -0.547224       0.785526       -0.546413      -0.00245036      0.0385593    
  1.95507965000E+08 -0.00453988      0.0292966      0.778142       -0.557182       0.777832       -0.556804      -0.00165221      0.039219     
  1.99757942500E+08 -0.00351105      0.0294832      0.770567       -0.567983       0.770109       -0.567304      -0.000877608     0.0398312    
  2.04007920000E+08 -0.00247284      0.029622       0.762684       -0.578516       0.762283       -0.577639      -9.79499E-05     0.0404389    
  2.08257897500E+08 -0.00142991      0.0297359      0.754829       -0.588557       0.754262       -0.587779       0.000731122     0.0410268    
  2.12507875000E+08 -0.000386204     0.0298444      0.746375       -0.598144       0.745958       -0.597704       0.00154863      0.0416535    
  2.16757852500E+08  0.000676634     0.0299265      0.738132       -0.608177       0.737705       -0.607469       0.00240031      0.0422392    
  2.21007830000E+08  0.00177009      0.0299938      0.729734       -0.617899       0.729403       -0.617517       0.00330899      0.0427878    
  2.25257807500E+08  0.00282101      0.0300623      0.721738       -0.627616       0.720801       -0.627033       0.00422659      0.0433482    
  2.29507785000E+08  0.00385905      0.0300605      0.712543       -0.63677        0.712035       -0.636365       0.00516033      0.0437926    
  2.33757762500E+08  0.00493073      0.0299977      0.703659       -0.64592        0.703186       -0.64576        0.00611099      0.0442398    
  2.38007740000E+08  0.00598807      0.0299298      0.69471        -0.655553       0.694515       -0.655051       0.00701629      0.0447245    
  2.42257717500E+08  0.00702546      0.0298932      0.685825       -0.664421       0.685676       -0.663883       0.00799922      0.0451333    
  2.46507695000E+08  0.00801672      0.0297715      0.676893       -0.67351        0.676452       -0.673057       0.00893622      0.04552      
  2.50757672500E+08  0.00901606      0.0296274      0.667507       -0.682179       0.66723        -0.681906       0.00990598      0.045892     
  2.55007650000E+08  0.0100481       0.0294945      0.658014       -0.691323       0.658108       -0.690589       0.0108036       0.0461887    
  2.59257627500E+08  0.0109916       0.0292851      0.648673       -0.699803       0.648737       -0.699511       0.0117177       0.0465029    
  2.63507605000E+08  0.0119331       0.0291534      0.638981       -0.708649       0.639211       -0.708129       0.0126049       0.0468548    
  2.67757582500E+08  0.0128819       0.0289469      0.629207       -0.717028       0.629197       -0.716409       0.0135601       0.0471914    
  2.72007560000E+08  0.013898        0.0287421      0.619164       -0.725141       0.619546       -0.724931       0.0144675       0.0475038    
  2.76257537500E+08  0.0148754       0.028495       0.609342       -0.733252       0.609495       -0.733133       0.0154068       0.0478607    
  2.80507515000E+08  0.0158409       0.0281933      0.599193       -0.740931       0.598959       -0.740816       0.0164154       0.0481889    
  2.84757492500E+08  0.0167599       0.0278862      0.589326       -0.748815       0.588977       -0.748546       0.0175418       0.0486375    
  2.89007470000E+08  0.0177147       0.027625       0.578367       -0.756835       0.579479       -0.756979       0.018528        0.048867     
  2.93257447500E+08  0.0186896       0.0272301      0.568356       -0.764321       0.569025       -0.764286       0.0195518       0.0490929    
  2.97507425000E+08  0.0196252       0.0268061      0.557632       -0.771687       0.55853        -0.771699       0.0206458       0.0492769    
  3.01757402500E+08  0.0205207       0.0263901      0.547406       -0.778661       0.547859       -0.778919       0.0216657       0.0494617    
  3.06007380000E+08  0.0214302       0.0259201      0.537001       -0.785868       0.537438       -0.78589        0.0227192       0.0496234    
  3.10257357500E+08  0.0223075       0.0254153      0.525754       -0.792553       0.526697       -0.793059       0.0237178       0.0497017    
  3.14507335000E+08  0.0231813       0.0248943      0.514993       -0.799497       0.516087       -0.799931       0.0247825       0.0498694    
  3.18757312500E+08  0.0240143       0.0243909      0.504425       -0.80544        0.505249       -0.806618       0.0257758       0.0499353    
  3.23007290000E+08  0.0248821       0.0238085      0.492721       -0.812861       0.494225       -0.813066       0.0268136       0.0500279    
  3.27257267500E+08  0.0256642       0.0232237      0.482176       -0.818707       0.483252       -0.819453       0.0278542       0.050023     
  3.31507245000E+08  0.0264816       0.0226216      0.470653       -0.825793       0.471676       -0.825443       0.0288581       0.0501768    
  3.35757222500E+08  0.0273326       0.0219986      0.459768       -0.831997       0.460308       -0.831638       0.0299479       0.0502607    
  3.40007200000E+08  0.0281749       0.0212916      0.449234       -0.837021       0.449111       -0.837277       0.0309194       0.0502466    
  3.44257177500E+08  0.0289115       0.0206333      0.437349       -0.842467       0.437708       -0.843048       0.0320625       0.0502264    
  3.48507155000E+08  0.0297218       0.0199276      0.425325       -0.848649       0.426372       -0.848242       0.0331565       0.0502229    
  3.52757132500E+08  0.03051         0.0192276      0.413581       -0.853157       0.414705       -0.853823       0.0341819       0.0501677    
  3.57007110000E+08  0.0312514       0.0184547      0.402608       -0.859649       0.403347       -0.859436       0.035384        0.0500761    
  3.61257087500E+08  0.0320547       0.0177048      0.391085       -0.864078       0.391633       -0.864324       0.0364926       0.0499983    
  3.65507065000E+08  0.0328139       0.0168825      0.379482       -0.869167       0.379983       -0.86893        0.0375493       0.0498329    
  3.69757042500E+08  0.0335299       0.0160424      0.367272       -0.873981       0.368273       -0.873708       0.0385967       0.0496586    
  3.74007020000E+08  0.034245        0.0151806      0.355017       -0.878578       0.356442       -0.878319       0.0396307       0.0494912    
  3.78256997500E+08  0.0350006       0.0143579      0.343739       -0.882176       0.34461        -0.882851       0.0407995       0.0493093    
  3.82506975000E+08  0.0356787       0.0134944      0.33165        -0.886015       0.332852       -0.887184       0.0418437       0.0490192    
  3.86756952500E+08  0.0364072       0.0125622      0.320305       -0.890834       0.32067        -0.891484       0.0428897       0.0487493    
  3.91006930000E+08  0.0370639       0.0116611      0.307845       -0.894365       0.308759       -0.89539        0.0439717       0.0485013    
  3.95256907500E+08  0.0376314       0.0107427      0.295494       -0.89819        0.296631       -0.899522       0.0449872       0.0482616    
  3.99506885000E+08  0.0383766       0.00979108     0.283596       -0.902431       0.284567       -0.902793       0.0459963       0.0479648    
  4.03756862500E+08  0.0390023       0.00888221     0.271974       -0.905972       0.272479       -0.906252       0.0470894       0.0476748    
  4.08006840000E+08  0.0395893       0.00796785     0.259502       -0.90901        0.260035       -0.909887       0.0481966       0.0473458    
  4.12256817500E+08  0.0401559       0.00700556     0.247405       -0.912381       0.247709       -0.912754       0.049221        0.0469843    
  4.16506795000E+08  0.040668        0.00611614     0.234966       -0.915034       0.23553        -0.915746       0.0502662       0.0465993    
  4.20756772500E+08  0.0412194       0.00516787     0.222384       -0.918003       0.223107       -0.918671       0.0513605       0.0461407    
  4.25006750000E+08  0.0418015       0.0041904      0.210196       -0.920411       0.210991       -0.921254       0.0524321       0.0456808    
  4.29256727500E+08  0.042305        0.00327994     0.197854       -0.923159       0.1986         -0.923861       0.0534745       0.0451136    
  4.33506705000E+08  0.0427924       0.00232839     0.18529        -0.925697       0.186083       -0.925878       0.0544607       0.0446448    
  4.37756682500E+08  0.0433561       0.00139421     0.17267        -0.927591       0.173724       -0.928164       0.0554823       0.0441292    
  4.42006660000E+08  0.0438409       0.000343899    0.159734       -0.929687       0.161297       -0.930218       0.0564892       0.0436143    
  4.46256637500E+08  0.0442968      -0.000620607    0.147701       -0.931489       0.148768       -0.932171       0.0574103       0.0430489    
  4.50506615000E+08  0.0446896      -0.00163018     0.13536        -0.933049       0.136208       -0.93375        0.0583858       0.0425311    
  4.54756592500E+08  0.0450245      -0.00264201     0.122726       -0.934536       0.123528       -0.935144       0.059335        0.042011     
  4.59006570000E+08  0.0453388      -0.003747       0.11001        -0.935947       0.110975       -0.936552       0.0603701       0.0414303    
  4.63256547500E+08  0.0456391      -0.00480897     0.0975408      -0.937114       0.0984456      -0.937561       0.0613482       0.0408845    
  4.67506525000E+08  0.0459585      -0.00582601     0.0850014      -0.937644       0.0856383      -0.938681       0.0623925       0.0402533    
  4.71756502500E+08  0.0461956      -0.00687311     0.0727336      -0.939188       0.0729816      -0.939129       0.0633936       0.039616     
  4.76006480000E+08  0.0464175      -0.00784594     0.0603614      -0.939559       0.0602472      -0.939921       0.0644168       0.0389668    
  4.80256457500E+08  0.0465508      -0.00887624     0.0469901      -0.939652       0.0477153      -0.940134       0.0653929       0.0381603    
  4.84506435000E+08  0.0466978      -0.00992852     0.0343546      -0.93982        0.0351351      -0.94016        0.0663458       0.0374381    
  4.88756412500E+08  0.0468056      -0.0109522      0.0214162      -0.940331       0.022565       -0.940341       0.0672578       0.0366654    
  4.93006390000E+08  0.0469219      -0.0120763      0.0092542      -0.940304       0.0101812      -0.939951       0.0681234       0.0359555    
  4.97256367500E+08  0.0470196      -0.0131606     -0.00312573     -0.940038      -0.00233141     -0.939918       0.0690915       0.0352104    
  5.01506345000E+08  0.0469936      -0.0141732     -0.0152713      -0.939506      -0.0148439      -0.939512       0.070042        0.0344259    
  5.05756322500E+08  0.0470736      -0.0152367     -0.028173       -0.938524      -0.0274518      -0.939057       0.0709187       0.0335134    
  5.10006300000E+08  0.0470744      -0.0163081     -0.0409544      -0.937801      -0.0397769      -0.937966       0.0717451       0.032725     
  5.14256277500E+08  0.0469643      -0.0174427     -0.0528316      -0.937239      -0.0522855      -0.937351       0.0726606       0.0318871    
  5.18506255000E+08  0.0469214      -0.0185107     -0.0659722      -0.935924      -0.0650331      -0.936147       0.0735654       0.030978     
  5.22756232500E+08  0.0467784      -0.0196495     -0.0778866      -0.934709      -0.0776047      -0.934833       0.0744876       0.0301258    
  5.27006210000E+08  0.0466333      -0.0208075     -0.0906056      -0.933274      -0.0898545      -0.933358       0.0754076       0.0291522    
  5.31256187500E+08  0.0464849      -0.0220291     -0.102551       -0.931341      -0.102561       -0.931843       0.0762337       0.0282237    
  5.35506165000E+08  0.0462354      -0.0231782     -0.115375       -0.929758      -0.114986       -0.930032       0.077095        0.0271537    
  5.39756142500E+08  0.0460246      -0.0243435     -0.127194       -0.927927      -0.127141       -0.928179       0.07796         0.0261349    
  5.44006120000E+08  0.0457342      -0.0255416     -0.139914       -0.926002      -0.139103       -0.925794       0.0788256       0.024994     
  5.48256097500E+08  0.0454755      -0.0266631     -0.151842       -0.923676      -0.151371       -0.923536       0.0796485       0.0239751    
  5.52506075000E+08  0.0451399      -0.0279336     -0.16421        -0.921666      -0.163498       -0.921312       0.080387        0.0227051    
  5.56756052500E+08  0.0447964      -0.0292656     -0.176177       -0.919169      -0.175247       -0.918757       0.0811226       0.0215493    
  5.61006030000E+08  0.0444318      -0.0303722     -0.188285       -0.916873      -0.187262       -0.916132       0.0818875       0.0203524    
  5.65256007500E+08  0.0438963      -0.0316393     -0.199969       -0.91376       -0.199229       -0.913454       0.0825318       0.0192733    
