!---------------------------------------------------------------------
! ZVRE, 3.52
!---------------------------------------------------------------------
! symbol freq-unit parameter-type data-format keyword impedance-ohm
#        HZ        S              RI          R       50
!---------------------------------------------------------------------
! freq                reS11          imS11           reS21          imS21           reS12          imS12           reS22          imS22           
  9.00000000000E+03 -0.727545        0.280523       0.00827547     -0.00660017    -0.0129237       0.0011717     -0.709855        0.301249     
  4.25897750000E+06 -0.0158232       0.0113108      0.000628588     0.000365964    0.000627958     0.000351806   -0.0222065       0.00826225   
  8.50895500000E+06 -0.0151507       0.0075281      0.000718896     0.000305617    0.000742551     0.000302981   -0.0225057       0.00520154   
  1.27589325000E+07 -0.0147891       0.00716182     0.000788778     0.000283007    0.000795638     0.000289013   -0.0227442       0.00515852   
  1.70089100000E+07 -0.0143403       0.00766707     0.000841202     0.000265422    0.000838013     0.000260151   -0.0226665       0.00595623   
  2.12588875000E+07 -0.0137696       0.00850325     0.000881005     0.00025032     0.000886818     0.00025054    -0.0225101       0.00694463   
  2.55088650000E+07 -0.0132292       0.00917442     0.000901119     0.000244897    0.000907801     0.000252335   -0.0222655       0.00793416   
  2.97588425000E+07 -0.0124632       0.00996728     0.000929139     0.000273375    0.000938073     0.000244889   -0.0221265       0.00835104   
  3.40088200000E+07 -0.0121794       0.0103481      0.000970954     0.00027905     0.000948072     0.000268136   -0.0218631       0.00909868   
  3.82587975000E+07 -0.0115794       0.0110959      0.000979139     0.000280072    0.000973001     0.000272955   -0.0215687       0.00997514   
  4.25087750000E+07 -0.0109474       0.0118102      0.00099135      0.00027032     0.00101522      0.00027677    -0.0212422       0.0108758    
  4.67587525000E+07 -0.0102912       0.012496       0.00102688      0.000272292    0.00101545      0.000270625   -0.0208963       0.0117588    
  5.10087300000E+07 -0.00962264      0.0131954      0.00103461      0.000276972    0.0010336       0.000271883   -0.0205389       0.0125899    
  5.52587075000E+07 -0.00893952      0.0138308      0.0010661       0.000274102    0.00106594      0.000262812   -0.0201827       0.0134358    
  5.95086850000E+07 -0.0082623       0.0144371      0.00108847      0.000267481    0.00109334      0.000254911   -0.0198094       0.0142416    
  6.37586625000E+07 -0.00755969      0.0150723      0.00109678      0.00026955     0.00111138      0.00026015    -0.0194016       0.0150727    
  6.80086400000E+07 -0.00687903      0.015652       0.00111064      0.000253089    0.00111383      0.000257438   -0.0190138       0.0158949    
  7.22586175000E+07 -0.00618707      0.0161733      0.00114053      0.000245619    0.00114715      0.000256525   -0.0186414       0.0166944    
  7.65085950000E+07 -0.00542942      0.0166758      0.00114957      0.000250353    0.00115677      0.000235614   -0.0182355       0.0174894    
  8.07585725000E+07 -0.0047176       0.0171949      0.00116842      0.00022828     0.00116724      0.000243575   -0.0178102       0.0182444    
  8.50085500000E+07 -0.00397896      0.0176333      0.00119093      0.000224564    0.00119742      0.000221576   -0.0173827       0.0190294    
  8.92585275000E+07 -0.00325901      0.0180477      0.00120586      0.000224585    0.00121037      0.000220943   -0.0169658       0.0197941    
  9.35085050000E+07 -0.00250575      0.0184378      0.00121892      0.000209901    0.00122809      0.000200285   -0.0165273       0.0205631    
  9.77584825000E+07 -0.00176951      0.0188031      0.0012346       0.000197738    0.00124601      0.000191578   -0.0160682       0.0213032    
  1.02008460000E+08 -0.00102154      0.0191222      0.00124211      0.000185942    0.00126082      0.000168149   -0.0156124       0.0220363    
  1.06258437500E+08 -0.000279054     0.0194312      0.0012567       0.000178109    0.00126838      0.000165673   -0.0151449       0.0227774    
  1.10508415000E+08  0.00050538      0.0196782      0.00128071      0.000162234    0.0012867       0.0001426     -0.0146658       0.0234847    
  1.14758392500E+08  0.00124472      0.0198803      0.00129263      0.000152224    0.00129397      0.000134064   -0.0141788       0.0242043    
  1.19008370000E+08  0.0020312       0.0201233      0.00128766      0.000104894    0.00128654      0.000119581   -0.0136815       0.0249952    
  1.23258347500E+08  0.00276242      0.020243       0.00128839      0.000103913    0.00130998      0.000102556   -0.013156        0.0256684    
  1.27508325000E+08  0.00356766      0.0203584      0.00130722      9.08209E-05    0.00131293      8.23267E-05   -0.0126598       0.0263603    
  1.31758302500E+08  0.00433989      0.020425       0.00130876      6.98361E-05    0.00131757      6.31995E-05   -0.0121279       0.0270554    
  1.36008280000E+08  0.00512664      0.0204895      0.00130501      4.28123E-05    0.0013238       5.59097E-05   -0.0116084       0.0277292    
  1.40258257500E+08  0.0059367       0.0205075      0.00132401      2.5232E-05     0.00133219      3.28073E-05   -0.011065        0.0283915    
  1.44508235000E+08  0.00672639      0.0204624      0.00132684      8.69724E-06    0.00133232      1.59804E-05   -0.0105278       0.0290452    
  1.48758212500E+08  0.00753021      0.0203945      0.00132569      1.28762E-05    0.00133824     -2.91672E-06   -0.00994746      0.0297312    
  1.53008190000E+08  0.00835519      0.0202989      0.00132319     -1.99259E-05    0.0013325      -1.03987E-05   -0.00937735      0.0303615    
  1.57258167500E+08  0.00920893      0.0201683      0.00132625     -2.57077E-05    0.0013312      -3.41797E-05   -0.00880972      0.0309641    
  1.61508145000E+08  0.010031        0.0200302      0.00132446     -6.27675E-05    0.00134832     -5.38441E-05   -0.00821636      0.0315841    
  1.65758122500E+08  0.0108707       0.0198479      0.00133649     -6.86092E-05    0.00133        -6.19694E-05   -0.00764833      0.0322221    
  1.70008100000E+08  0.011701        0.0196353      0.00132722     -9.57449E-05    0.0013332      -9.59894E-05   -0.00700866      0.0328147    
  1.74258077500E+08  0.0125511       0.019395       0.00131352     -9.58753E-05    0.00133687     -9.8025E-05    -0.00639797      0.0334155    
  1.78508055000E+08  0.0134197       0.0191634      0.00132751     -0.000125635    0.00133281     -0.000133262   -0.00578213      0.0339933    
  1.82758032500E+08  0.0142788       0.0188866      0.00130091     -0.000144005    0.00131784     -0.000134209   -0.00516027      0.0345663    
  1.87008010000E+08  0.0151433       0.0186234      0.00129639     -0.000166629    0.00131629     -0.000148317   -0.00451914      0.0351325    
  1.91257987500E+08  0.01601         0.0183377      0.00128866     -0.000169933    0.00129292     -0.000180555   -0.00388458      0.0356826    
  1.95507965000E+08  0.0169062       0.0180294      0.00128229     -0.000194148    0.00129633     -0.000182642   -0.00319734      0.0362373    
  1.99757942500E+08  0.0177787       0.0177343      0.00127856     -0.000204885    0.00127906     -0.000203563   -0.00254588      0.0367853    
  2.04007920000E+08  0.018633        0.0174258      0.00126268     -0.000215403    0.00127192     -0.000227012   -0.00186391      0.0373509    
  2.08257897500E+08  0.0194964       0.0170816      0.00124742     -0.000245166    0.00126181     -0.000237484   -0.00120808      0.0378708    
  2.12507875000E+08  0.0203751       0.0167791      0.00123654     -0.000249127    0.00124103     -0.000240296   -0.000524771     0.0384037    
  2.16757852500E+08  0.02122         0.0164497      0.00122975     -0.000260567    0.00122797     -0.00026332     0.000159295     0.0388946    
  2.21007830000E+08  0.0220847       0.01612        0.00120218     -0.000266288    0.00121403     -0.000267186    0.000843068     0.0394138    
  2.25257807500E+08  0.0229097       0.0158121      0.00117129     -0.000268147    0.0012038      -0.000295625    0.00155839      0.0398345    
  2.29507785000E+08  0.0236866       0.0154784      0.00115186     -0.000285703    0.00117506     -0.000299813    0.00227381      0.0403562    
  2.33757762500E+08  0.0244819       0.0150896      0.00115151     -0.000300576    0.00115167     -0.000314399    0.00298466      0.0407887    
  2.38007740000E+08  0.0252311       0.0148027      0.00114069     -0.000296792    0.00113996     -0.000303925    0.00369319      0.041268     
  2.42257717500E+08  0.0260014       0.0144857      0.00112257     -0.000307084    0.00112102     -0.000320758    0.00444999      0.0416877    
  2.46507695000E+08  0.0266978       0.0141807      0.00109344     -0.000319564    0.00110945     -0.000308898    0.00517304      0.0421482    
  2.50757672500E+08  0.0274034       0.0138605      0.00106212     -0.000320662    0.00108643     -0.000320553    0.00595328      0.042549     
  2.55007650000E+08  0.0280568       0.013543       0.00105343     -0.000332155    0.00106277     -0.000332228    0.00667907      0.0429817    
  2.59257627500E+08  0.028674        0.0132054      0.00103183     -0.000316674    0.00103467     -0.000335118    0.00744374      0.0433615    
  2.63507605000E+08  0.0292649       0.012867       0.000991844    -0.000319951    0.00102436     -0.000320374    0.00823671      0.0437423    
  2.67757582500E+08  0.0298535       0.0125474      0.00098056     -0.000333205    0.000999738    -0.000328516    0.0089571       0.0441292    
  2.72007560000E+08  0.0303692       0.0122131      0.000957842    -0.000329465    0.00096368     -0.000322793    0.00976038      0.0444996    
  2.76257537500E+08  0.0308831       0.0118609      0.000934981    -0.000295925    0.000937163    -0.000317652    0.0105419       0.0448658    
  2.80507515000E+08  0.0313263       0.0115254      0.000919945    -0.000309163    0.000921487    -0.000309764    0.0113461       0.0452138    
  2.84757492500E+08  0.0317394       0.0111614      0.000883322    -0.000292177    0.000895052    -0.000306977    0.0121489       0.0455432    
  2.89007470000E+08  0.0321379       0.0108044      0.00086135     -0.000277032    0.000874952    -0.000297419    0.0128956       0.0458888    
  2.93257447500E+08  0.0325068       0.0103891      0.000839789    -0.0002662      0.000857897    -0.000289609    0.0136996       0.0461749    
  2.97507425000E+08  0.0328079       0.00997689     0.000813451    -0.000257298    0.000831928    -0.000269614    0.01453         0.0464944    
  3.01757402500E+08  0.03311         0.00957986     0.000789204    -0.000254747    0.000797193    -0.000264759    0.0153593       0.0467766    
  3.06007380000E+08  0.033376        0.00914106     0.000759757    -0.000222915    0.000781339    -0.000234218    0.0161462       0.0470382    
  3.10257357500E+08  0.0336152       0.00869834     0.000746594    -0.000203199    0.000761173    -0.000216114    0.0169567       0.047298     
  3.14507335000E+08  0.0338666       0.00820657     0.000718466    -0.000185552    0.000746703    -0.000204461    0.0178442       0.0475848    
  3.18757312500E+08  0.0340647       0.00773133     0.000707916    -0.000164627    0.00072278     -0.000177926    0.0186614       0.0478176    
  3.23007290000E+08  0.0342517       0.00715393     0.000683986    -0.000139373    0.000695526    -0.000152907    0.0194576       0.0480746    
  3.27257267500E+08  0.0344167       0.00662114     0.000673092    -0.000110291    0.000676473    -0.000129264    0.0202984       0.0482723    
  3.31507245000E+08  0.0345731       0.0060645      0.000653498    -0.00011384     0.000650584    -0.000102164    0.0211416       0.0485331    
  3.35757222500E+08  0.0347404       0.00544978     0.000624135    -4.79549E-05    0.000644138    -6.9561E-05     0.0219509       0.0486881    
  3.40007200000E+08  0.0348692       0.00482141     0.000601337    -3.68116E-05    0.00061686     -4.06643E-05    0.0228021       0.0489131    
  3.44257177500E+08  0.0350027       0.00419415     0.000587746     3.37448E-06    0.0005966      -4.80988E-06    0.0236919       0.0490557    
  3.48507155000E+08  0.0351739       0.00354308     0.000570271     2.38566E-05    0.000595868     2.59926E-05    0.0245678       0.0492634    
  3.52757132500E+08  0.0353187       0.00284916     0.00056626      6.63075E-05    0.000577603     6.19647E-05    0.0254105       0.0493997    
  3.57007110000E+08  0.0354472       0.00217325     0.000551942     0.000102508    0.000560384     8.31121E-05    0.0263007       0.0495493    
  3.61257087500E+08  0.035652        0.00150268     0.000550433     0.000136858    0.000534106     0.00013461     0.027147        0.0496697    
  3.65507065000E+08  0.0358146       0.000783718    0.000527136     0.000185376    0.00053053      0.000174159    0.0280374       0.0497799    
  3.69757042500E+08  0.036023        7.4238E-05     0.000508528     0.000224336    0.000539435     0.000212326    0.0288881       0.0499049    
  3.74007020000E+08  0.036298       -0.000680316    0.000511184     0.000268857    0.000525004     0.000266773    0.0297471       0.0499966    
  3.78256997500E+08  0.0365302      -0.0013859      0.00051224      0.000301662    0.00052275      0.000304185    0.0306449       0.0500497    
  3.82506975000E+08  0.0368145      -0.00208788     0.000511704     0.000363538    0.000527386     0.000357413    0.0315066       0.0501425    
  3.86756952500E+08  0.0370198      -0.00281335     0.000507421     0.000412735    0.000528757     0.000417562    0.0324042       0.050203     
  3.91006930000E+08  0.0373705      -0.00354761     0.000518894     0.000463712    0.000531623     0.000451546    0.0332974       0.0502271    
  3.95256907500E+08  0.0376707      -0.00424281     0.000518602     0.0005067      0.000523098     0.000506659    0.0341589       0.0502636    
  3.99506885000E+08  0.0380712      -0.0049047      0.000534163     0.00056268     0.000533004     0.000550891    0.0350317       0.050287     
  4.03756862500E+08  0.0384288      -0.00556182     0.000523999     0.000621268    0.000553329     0.000602721    0.035949        0.0502872    
  4.08006840000E+08  0.038788       -0.00622418     0.000541898     0.000658322    0.000553643     0.000660934    0.0368362       0.0502909    
  4.12256817500E+08  0.0392143      -0.00685345     0.000557552     0.00072483     0.000560893     0.000713686    0.0377282       0.0502884    
  4.16506795000E+08  0.0395962      -0.00747534     0.000565864     0.000777218    0.000579713     0.000768728    0.0386125       0.0502953    
  4.20756772500E+08  0.0400461      -0.00805756     0.000594077     0.000829152    0.000611937     0.000819537    0.0395254       0.0501912    
  4.25006750000E+08  0.0405218      -0.00862884     0.000620584     0.000895427    0.000631106     0.000868703    0.0404455       0.0501678    
  4.29256727500E+08  0.0409741      -0.00914196     0.000649832     0.000943285    0.000665722     0.000936108    0.0413498       0.0500565    
  4.33506705000E+08  0.0414036      -0.00965258     0.000666367     0.000996363    0.00068911      0.000998153    0.042198        0.0499704    
  4.37756682500E+08  0.0418943      -0.0101669      0.000709534     0.00105532     0.000723304     0.00105757     0.0431555       0.0498748    
  4.42006660000E+08  0.0423668      -0.0106311      0.000759332     0.00111989     0.000761373     0.00110131     0.0440831       0.049731     
  4.46256637500E+08  0.0428257      -0.0110498      0.000788306     0.00116806     0.000806839     0.00116514     0.0449649       0.0496215    
  4.50506615000E+08  0.0432774      -0.0114867      0.00083016      0.00122992     0.0008537       0.0012278      0.045894        0.049491     
  4.54756592500E+08  0.0437037      -0.0118435      0.000872218     0.00128867     0.000894287     0.00128793     0.0467509       0.0493206    
  4.59006570000E+08  0.0441348      -0.0122304      0.000926547     0.00134492     0.000943058     0.00133423     0.0476991       0.0491473    
  4.63256547500E+08  0.0445143      -0.012592       0.000973075     0.00139064     0.000992374     0.00139648     0.048604        0.0489917    
  4.67506525000E+08  0.044968       -0.0129424      0.0010274       0.00144932     0.00104773      0.0014332      0.049617        0.0487783    
  4.71756502500E+08  0.0453561      -0.0133098      0.00109165      0.0014922      0.00109937      0.00150469     0.0504735       0.0485512    
  4.76006480000E+08  0.0457347      -0.0136228      0.00115132      0.00156257     0.0011696       0.00154708     0.0513974       0.0483141    
  4.80256457500E+08  0.0460727      -0.0139532      0.0012289       0.00160132     0.00124947      0.00159413     0.0522986       0.0480913    
  4.84506435000E+08  0.0464026      -0.0143066      0.00129464      0.00165548     0.00130907      0.0016483      0.0532225       0.0478159    
  4.88756412500E+08  0.0467042      -0.0146413      0.00136624      0.00170277     0.00139146      0.00168656     0.0541657       0.0476088    
  4.93006390000E+08  0.0469782      -0.0149474      0.00142688      0.00174841     0.00145245      0.00173351     0.0550455       0.0473563    
  4.97256367500E+08  0.0472701      -0.0153624      0.00150749      0.00178657     0.00153498      0.00178769     0.0559531       0.0471083    
  5.01506345000E+08  0.0474906      -0.0157149      0.00159164      0.00183031     0.00161887      0.0018262      0.0568863       0.0468198    
  5.05756322500E+08  0.0477198      -0.0161343      0.0016696       0.00187096     0.00170068      0.00186247     0.0577756       0.0465044    
  5.10006300000E+08  0.0479082      -0.0165403      0.00175849      0.00189899     0.00180561      0.00190118     0.0586572       0.0462024    
  5.14256277500E+08  0.0480922      -0.0170084      0.00184957      0.00194913     0.00188151      0.00192187     0.0595744       0.0458326    
  5.18506255000E+08  0.0482452      -0.0174822      0.00194078      0.00196733     0.00196209      0.00196983     0.0604863       0.0454864    
  5.22756232500E+08  0.0483536      -0.0180554      0.00204445      0.00199852     0.00207777      0.00199446     0.0614385       0.0450874    
  5.27006210000E+08  0.0484603      -0.0186221      0.00214547      0.00202872     0.00217726      0.00201822     0.0623708       0.0447015    
  5.31256187500E+08  0.0485976      -0.0192864      0.00224946      0.00206601     0.00228742      0.00203962     0.063213        0.0443576    
  5.35506165000E+08  0.0486344      -0.0199604      0.00234581      0.00207701     0.00238421      0.00205751     0.0641133       0.0439151    
  5.39756142500E+08  0.0487234      -0.0206912      0.00247028      0.00210118     0.00250042      0.00207558     0.0649734       0.0435359    
  5.44006120000E+08  0.0488201      -0.0214421      0.00259027      0.00210774     0.00259828      0.0020805      0.0658919       0.043044     
  5.48256097500E+08  0.0488976      -0.0222442      0.00269218      0.00210663     0.0027112       0.00209431     0.0667566       0.0426522    
  5.52506075000E+08  0.0490321      -0.0231763      0.00280864      0.0021105      0.00283249      0.00209017     0.0676256       0.0421399    
  5.56756052500E+08  0.0491371      -0.0241087      0.00291947      0.0021119      0.00295312      0.00209736     0.0685392       0.041662     
  5.61006030000E+08  0.0492684      -0.0250714      0.00304301      0.0021082      0.0030683       0.00209356     0.0694573       0.0411898    
  5.65256007500E+08  0.0494472      -0.0260081      0.00317081      0.0021158      0.00318923      0.00208643     0.0702932       0.0407186    
