!---------------------------------------------------------------------
! ZVRE, 3.52
!---------------------------------------------------------------------
! symbol freq-unit parameter-type data-format keyword impedance-ohm
#        HZ        S              RI          R       50
!---------------------------------------------------------------------
! freq                reS11          imS11           reS21          imS21           reS12          imS12           reS22          imS22           
  9.00000000000E+03 -0.862861        0.282946       0.0995649       0.202476       0.0942507       0.199949      -0.923556        0.173153     
  3.75897750000E+06 -0.0215782       0.0124351      0.699045       -0.00370326     0.69858        -0.00314127    -0.0557732       0.0324618    
  7.50895500000E+06 -0.019104        0.00909435     0.699241       -0.0173978      0.698226       -0.0172534     -0.0507329       0.0229177    
  1.12589325000E+07 -0.0182295       0.00864218     0.698546       -0.0302667      0.697638       -0.0299758     -0.0494168       0.0221879    
  1.50089100000E+07 -0.0175764       0.00902442     0.697763       -0.0416965      0.696964       -0.0418812     -0.0484284       0.024005     
  1.87588875000E+07 -0.0169697       0.00998163     0.696722       -0.0543083      0.696021       -0.0551143     -0.0472455       0.0273114    
  2.25088650000E+07 -0.0164244       0.0108893      0.695936       -0.0664518      0.695163       -0.0663232     -0.0457131       0.0312554    
  2.62588425000E+07 -0.01571         0.0119914      0.694159       -0.0822879      0.693172       -0.0776448     -0.0430436       0.0361515    
  3.00088200000E+07 -0.0151129       0.012173       0.69266        -0.0831921      0.691573       -0.0854351     -0.0418427       0.038076     
  3.37587975000E+07 -0.0148575       0.0125532      0.691272       -0.0925874      0.690384       -0.0929746     -0.0386382       0.0417861    
  3.75087750000E+07 -0.0143361       0.0133849      0.689601       -0.102549       0.688661       -0.103109      -0.0344056       0.0450382    
  4.12587525000E+07 -0.0137172       0.0142681      0.687651       -0.113039       0.686457       -0.113398      -0.0296041       0.0472778    
  4.50087300000E+07 -0.0130594       0.015139       0.685536       -0.123365       0.684511       -0.123726      -0.0250275       0.0484703    
  4.87587075000E+07 -0.0123913       0.0160299      0.683377       -0.133848       0.682361       -0.133835      -0.0208224       0.0489504    
  5.25086850000E+07 -0.0116827       0.0168421      0.68103        -0.14378        0.67991        -0.144199      -0.0170803       0.0490084    
  5.62586625000E+07 -0.0109179       0.017672       0.678426       -0.154019       0.677329       -0.154199      -0.0137952       0.0488747    
  6.00086400000E+07 -0.0101567       0.0184468      0.675705       -0.163857       0.67476        -0.164009      -0.0109059       0.0485945    
  6.37586175000E+07 -0.00934757      0.0191819      0.672895       -0.17358        0.671825       -0.174097      -0.00830219      0.0482586    
  6.75085950000E+07 -0.00852104      0.0198772      0.669893       -0.183426       0.668707       -0.183829      -0.00599193      0.0478916    
  7.12585725000E+07 -0.00763339      0.0205493      0.666668       -0.193274       0.665902       -0.193656      -0.00386838      0.0475231    
  7.50085500000E+07 -0.00669437      0.0211875      0.663809       -0.203298       0.662776       -0.20341       -0.00196706      0.0471793    
  7.87585275000E+07 -0.00585186      0.021777       0.660438       -0.212554       0.659461       -0.212859      -0.000185361     0.0468433    
  8.25085050000E+07 -0.00492164      0.0223112      0.656743       -0.222253       0.655683       -0.222826       0.00145194      0.0465381    
  8.62584825000E+07 -0.00403208      0.0227871      0.65305        -0.231677       0.651972       -0.232118       0.00298351      0.0462519    
  9.00084600000E+07 -0.0030865       0.0232753      0.649364       -0.241465       0.64827        -0.24165        0.00437004      0.0460314    
  9.37584375000E+07 -0.00215993      0.0237227      0.645328       -0.250531       0.644386       -0.25124        0.00577322      0.0458361    
  9.75084150000E+07 -0.00122313      0.0241739      0.641194       -0.259898       0.640245       -0.260499       0.00709227      0.0456589    
  1.01258392500E+08 -0.000249307     0.024543       0.637559       -0.269162       0.636236       -0.269871       0.00838024      0.0455551    
  1.05008370000E+08  0.00072049      0.0248568      0.633042       -0.278542       0.632005       -0.279125       0.00963101      0.0453849    
  1.08758347500E+08  0.00168869      0.0252212      0.628646       -0.287867       0.627557       -0.288102       0.0108884       0.0452818    
  1.12508325000E+08  0.00267851      0.0255536      0.623778       -0.296825       0.623271       -0.297236       0.0121352       0.0451317    
  1.16258302500E+08  0.00367279      0.0258456      0.619409       -0.305768       0.618531       -0.306301       0.0133421       0.0450527    
  1.20008280000E+08  0.00470421      0.0261703      0.61491        -0.314758       0.613808       -0.315316       0.0145629       0.0449292    
  1.23758257500E+08  0.00571695      0.0264035      0.610101       -0.323636       0.60896        -0.324188       0.0157004       0.0447669    
  1.27508235000E+08  0.0068082       0.0266624      0.604851       -0.332488       0.603975       -0.332968       0.0168457       0.0446011    
  1.31258212500E+08  0.00788435      0.0268531      0.599697       -0.341238       0.598727       -0.341705       0.0179522       0.0444797    
  1.35008190000E+08  0.0090041       0.0270247      0.59446        -0.349932       0.593515       -0.350321       0.0190007       0.0443159    
  1.38758167500E+08  0.0101212       0.027112       0.589154       -0.358446       0.587973       -0.358966       0.0200415       0.0441431    
  1.42508145000E+08  0.0112667       0.0271976      0.583662       -0.367119       0.582617       -0.367262       0.0210661       0.0440544    
  1.46258122500E+08  0.0123713       0.0272225      0.5781         -0.375416       0.577002       -0.375856       0.0221063       0.0439555    
  1.50008100000E+08  0.0135245       0.0272021      0.572291       -0.383754       0.571286       -0.384114       0.0231209       0.0438955    
  1.53758077500E+08  0.0146606       0.0271738      0.566396       -0.39197        0.565391       -0.392428       0.0241812       0.0438358    
  1.57508055000E+08  0.0157364       0.0270601      0.560245       -0.400075       0.55927        -0.400381       0.0252583       0.0437578    
  1.61258032500E+08  0.0168933       0.026883       0.554103       -0.408015       0.553249       -0.408544       0.0263335       0.0436471    
  1.65008010000E+08  0.0179803       0.0267273      0.547971       -0.416117       0.546916       -0.416185       0.0274431       0.0435551    
  1.68757987500E+08  0.0190496       0.0265115      0.541403       -0.423752       0.540651       -0.424004       0.0285729       0.0433918    
  1.72507965000E+08  0.020106        0.0263075      0.535215       -0.431372       0.53419        -0.431738       0.0297262       0.043232     
  1.76257942500E+08  0.0211572       0.0260336      0.528778       -0.439644       0.527838       -0.439353       0.0309035       0.0430526    
  1.80007920000E+08  0.0221587       0.02574        0.521725       -0.446747       0.521238       -0.447001       0.0320259       0.042815     
  1.83757897500E+08  0.0231592       0.0254983      0.515315       -0.453707       0.514221       -0.454199       0.0331881       0.0425204    
  1.87507875000E+08  0.0242018       0.0251909      0.508249       -0.461215       0.507497       -0.461693       0.0343126       0.0422106    
  1.91257852500E+08  0.0251924       0.0248964      0.501273       -0.468616       0.500519       -0.468766       0.0354158       0.0418078    
  1.95007830000E+08  0.0261743       0.024543       0.494306       -0.475508       0.493239       -0.475995       0.0364975       0.0414873    
  1.98757807500E+08  0.0272319       0.0242608      0.487247       -0.48273        0.48607        -0.482907       0.0375229       0.0410739    
  2.02507785000E+08  0.028246        0.0239111      0.479972       -0.489863       0.47888        -0.490014       0.0385606       0.0406483    
  2.06257762500E+08  0.0292661       0.0234858      0.472774       -0.496482       0.471354       -0.496833       0.0395858       0.0402574    
  2.10007740000E+08  0.030287        0.0231091      0.465265       -0.503607       0.464156       -0.5033         0.0405844       0.0398962    
  2.13757717500E+08  0.0312976       0.0226108      0.457          -0.51011        0.457349       -0.510542       0.041651        0.0394905    
  2.17507695000E+08  0.0323504       0.0220493      0.449641       -0.516528       0.449689       -0.517003       0.0426901       0.0390897    
  2.21257672500E+08  0.0333339       0.0215001      0.442065       -0.523058       0.441805       -0.523363       0.0437245       0.0386549    
  2.25007650000E+08  0.0342939       0.0208672      0.433782       -0.529357       0.434011       -0.529733       0.0448018       0.0381665    
  2.28757627500E+08  0.0352208       0.0202113      0.426528       -0.535676       0.426064       -0.535815       0.0458708       0.0377046    
  2.32507605000E+08  0.0361433       0.0195192      0.418204       -0.541318       0.418216       -0.541886       0.0469659       0.0371194    
  2.36257582500E+08  0.0369578       0.0188416      0.40985        -0.547039       0.410165       -0.547781       0.0479997       0.0365208    
  2.40007560000E+08  0.0378075       0.018099       0.402164       -0.553054       0.401879       -0.553511       0.0490768       0.0358605    
  2.43757537500E+08  0.0385389       0.0173745      0.393714       -0.558882       0.393586       -0.559373       0.0501052       0.0351791    
  2.47507515000E+08  0.0392942       0.0166327      0.385214       -0.564226       0.38531        -0.564888       0.0510437       0.0344192    
  2.51257492500E+08  0.040028        0.0159131      0.37654        -0.56967        0.376949       -0.570094       0.0519806       0.0336838    
  2.55007470000E+08  0.0407412       0.0151674      0.368091       -0.574468       0.368294       -0.575547       0.0528691       0.0328922    
  2.58757447500E+08  0.0414083       0.0144271      0.359783       -0.579951       0.359691       -0.580577       0.0536903       0.0321417    
  2.62507425000E+08  0.0420255       0.0137123      0.350779       -0.584845       0.351097       -0.585577       0.0545001       0.031353     
  2.66257402500E+08  0.0427663       0.0129643      0.342292       -0.589393       0.342489       -0.590748       0.0553046       0.0306001    
  2.70007380000E+08  0.0433788       0.0121773      0.333583       -0.594439       0.333363       -0.595404       0.0560872       0.0298735    
  2.73757357500E+08  0.0440071       0.0114299      0.324999       -0.599169       0.32463        -0.599873       0.05685         0.029128     
  2.77507335000E+08  0.0446751       0.0106554      0.31592        -0.603721       0.315648       -0.604286       0.0576395       0.0283652    
  2.81257312500E+08  0.0453572       0.00986554     0.307033       -0.608197       0.306671       -0.608781       0.0584234       0.0276005    
  2.85007290000E+08  0.0459937       0.00902361     0.297894       -0.612147       0.297684       -0.613108       0.0592872       0.02683      
  2.88757267500E+08  0.0465858       0.00816065     0.288888       -0.616275       0.288519       -0.61691        0.0600591       0.0260105    
  2.92507245000E+08  0.0472132       0.00726515     0.279734       -0.620362       0.279394       -0.621106       0.0608833       0.0251911    
  2.96257222500E+08  0.0477823       0.0063433      0.27048        -0.624412       0.270247       -0.624742       0.0616961       0.0242755    
  3.00007200000E+08  0.0483616       0.00537178     0.261109       -0.627937       0.261056       -0.628718       0.0624934       0.0233801    
  3.03757177500E+08  0.0488829       0.00439071     0.252062       -0.631486       0.251659       -0.632267       0.0632345       0.0224254    
  3.07507155000E+08  0.0493782       0.00342192     0.242525       -0.635281       0.242356       -0.635542       0.0639628       0.0214505    
  3.11257132500E+08  0.0498551       0.00240155     0.233038       -0.638473       0.232982       -0.638977       0.0646464       0.0204744    
  3.15007110000E+08  0.0502831       0.00140098     0.223919       -0.641508       0.223489       -0.642105       0.0653359       0.0194419    
  3.18757087500E+08  0.0507121       0.000335306    0.21456        -0.644945       0.213972       -0.645355       0.0659091       0.0184705    
  3.22507065000E+08  0.0510691      -0.000697727    0.204638       -0.647572       0.204443       -0.647719       0.0664757       0.0174781    
  3.26257042500E+08  0.0513838      -0.00167974     0.194993       -0.650302       0.194882       -0.650781       0.0670764       0.0164302    
  3.30007020000E+08  0.0516917      -0.00269603     0.185314       -0.653028       0.185524       -0.65327        0.0676502       0.0154548    
  3.33756997500E+08  0.0519538      -0.00367198     0.175866       -0.655348       0.175768       -0.655956       0.0682236       0.0145241    
  3.37506975000E+08  0.05227        -0.00459066     0.166466       -0.657384       0.165896       -0.657999       0.0688131       0.0134945    
  3.41256952500E+08  0.0526184      -0.00567307     0.156661       -0.660051       0.156049       -0.660342       0.0694114       0.0124979    
  3.45006930000E+08  0.0528545      -0.00665684     0.14637        -0.661841       0.146392       -0.662343       0.0699908       0.01139      
  3.48756907500E+08  0.0531777      -0.00760348     0.136615       -0.663515       0.136592       -0.664405       0.0705796       0.0103019    
  3.52506885000E+08  0.0535081      -0.00863415     0.127089       -0.665637       0.126938       -0.665918       0.0711376       0.00915129   
  3.56256862500E+08  0.0537042      -0.00963125     0.116976       -0.666921       0.117087       -0.667521       0.0716509       0.00797486   
  3.60006840000E+08  0.0540674      -0.0105612      0.107924       -0.668079       0.107269       -0.668874       0.0722049       0.00678721   
  3.63756817500E+08  0.0544195      -0.0117297      0.0983109      -0.670433       0.0973294      -0.670226       0.0726966       0.00552345   
  3.67506795000E+08  0.0546415      -0.012844       0.0875806      -0.671606       0.0875982      -0.671401       0.0730508       0.00421153   
  3.71256772500E+08  0.0548614      -0.0138366      0.0778013      -0.671341       0.0774558      -0.672438       0.0733978       0.00293884   
  3.75006750000E+08  0.0551298      -0.0150066      0.0684422      -0.673052       0.0675458      -0.673303       0.0736909       0.00166662   
  3.78756727500E+08  0.0552835      -0.0161415      0.0576896      -0.673822       0.0574714      -0.673967       0.0739367       0.000397257  
  3.82506705000E+08  0.0554075      -0.01722        0.048376       -0.673952       0.0477428      -0.674691       0.0742392      -0.000903203  
  3.86256682500E+08  0.0555371      -0.018239       0.0382666      -0.6747         0.0378596      -0.674934       0.0744141      -0.00212889   
  3.90006660000E+08  0.0556328      -0.0194404      0.0284211      -0.674934       0.0277874      -0.675297       0.0746459      -0.00339634   
  3.93756637500E+08  0.0556566      -0.02056        0.0187317      -0.675107       0.0178927      -0.675436       0.0748421      -0.00456296   
  3.97506615000E+08  0.055713       -0.0215663      0.00804991     -0.67489        0.0078324      -0.675356       0.0750057      -0.0057633    
  4.01256592500E+08  0.055755       -0.0226657     -0.00164827     -0.674735      -0.00205508     -0.675232       0.075202       -0.00702136   
  4.05006570000E+08  0.0557515      -0.0236562     -0.0117946      -0.674429      -0.0118948      -0.674893       0.0753977      -0.00826724   
  4.08756547500E+08  0.0557771      -0.0247029     -0.0213563      -0.673993      -0.0218483      -0.674567       0.0755677      -0.009546     
  4.12506525000E+08  0.0557726      -0.0257065     -0.0312715      -0.673631      -0.0317998      -0.673937       0.0757232      -0.0108199    
  4.16256502500E+08  0.0557297      -0.0266522     -0.0410835      -0.672575      -0.0417881      -0.673237       0.075814       -0.0121253    
  4.20006480000E+08  0.0557509      -0.0276313     -0.0510732      -0.671807      -0.0516821      -0.672448       0.0759219      -0.013481     
  4.23756457500E+08  0.0557333      -0.0285518     -0.060983       -0.670712      -0.0614845      -0.671415       0.0759094      -0.0148542    
  4.27506435000E+08  0.0557649      -0.0294999     -0.0709378      -0.669626      -0.0712939      -0.670126       0.0759277      -0.0162385    
  4.31256412500E+08  0.0558086      -0.0304822     -0.0806959      -0.66819       -0.0811184      -0.668992       0.0758624      -0.0176328    
  4.35006390000E+08  0.0558398      -0.031416      -0.0904721      -0.666964      -0.0908028      -0.667491       0.075695       -0.0190004    
  4.38756367500E+08  0.0558657      -0.0324251     -0.10036        -0.665515      -0.100949       -0.665788       0.0755438      -0.0203222    
  4.42506345000E+08  0.0557898      -0.0334371     -0.11024        -0.663708      -0.110752       -0.664178       0.0753937      -0.0216441    
  4.46256322500E+08  0.0557221      -0.0345025     -0.119963       -0.662018      -0.120636       -0.662215       0.0751453      -0.0229179    
  4.50006300000E+08  0.055687       -0.0354959     -0.129782       -0.659782      -0.130191       -0.660252       0.0749726      -0.0241716    
  4.53756277500E+08  0.0555418      -0.0365073     -0.139194       -0.657306      -0.139722       -0.658048       0.074745       -0.0253641    
  4.57506255000E+08  0.0553558      -0.0375375     -0.149122       -0.655414      -0.149503       -0.655589       0.0745544      -0.0265501    
  4.61256232500E+08  0.055147       -0.0385778     -0.159375       -0.652789      -0.159169       -0.652999       0.074389       -0.0278743    
  4.65006210000E+08  0.0548941      -0.0395305     -0.168503       -0.650004      -0.168732       -0.650449       0.0741447      -0.0291654    
  4.68756187500E+08  0.0546883      -0.0405228     -0.178279       -0.647538      -0.178201       -0.647673       0.0739389      -0.0304512    
  4.72506165000E+08  0.0543833      -0.0414928     -0.188362       -0.644188      -0.187743       -0.644581       0.0737261      -0.0317638    
  4.76256142500E+08  0.054081       -0.0424467     -0.197258       -0.640963      -0.197344       -0.641642       0.0734275      -0.0330862    
  4.80006120000E+08  0.0538021      -0.0432906     -0.206855       -0.637443      -0.206793       -0.638454       0.0730459      -0.0344819    
  4.83756097500E+08  0.0534718      -0.0442154     -0.21636        -0.634039      -0.216273       -0.634908       0.0727419      -0.0358621    
  4.87506075000E+08  0.0530987      -0.0451409     -0.225167       -0.630777      -0.225464       -0.631729       0.0723608      -0.0372171    
  4.91256052500E+08  0.0527524      -0.0460418     -0.234471       -0.627277      -0.234739       -0.628191       0.0719749      -0.0384986    
  4.95006030000E+08  0.0524448      -0.0469589     -0.243487       -0.623334      -0.24403        -0.624381       0.0714797      -0.0398268    
  4.98756007500E+08  0.0520172      -0.0478101     -0.252563       -0.619758      -0.252957       -0.620482       0.0709846      -0.0411737    
