!---------------------------------------------------------------------
! ZVRE, 3.52
!---------------------------------------------------------------------
! symbol freq-unit parameter-type data-format keyword impedance-ohm
#        HZ        S              RI          R       50
!---------------------------------------------------------------------
! freq                reS11          imS11           reS21          imS21           reS12          imS12           reS22          imS22           
  9.00000000000E+03 -0.859918        0.284262       0.100474        0.202998       0.0956751       0.201082      -0.924351        0.17335      
  3.75897750000E+06 -0.0216071       0.012545       0.69909        -0.00347224     0.698157       -0.00309537    -0.0563026       0.0325466    
  7.50895500000E+06 -0.0190671       0.0092596      0.699144       -0.0171103      0.6979         -0.0171483     -0.0511416       0.0230037    
  1.12589325000E+07 -0.0181631       0.00883364     0.69855        -0.0299238      0.697507       -0.0298972     -0.049832        0.0222386    
  1.50089100000E+07 -0.0175088       0.00924242     0.697922       -0.0415357      0.696641       -0.0418268     -0.0488452       0.0240526    
  1.87588875000E+07 -0.0168792       0.0102613      0.696709       -0.054634       0.695638       -0.0553082     -0.0476208       0.0274006    
  2.25088650000E+07 -0.016305        0.0111559      0.695995       -0.0661116      0.69477        -0.0662857     -0.046142        0.031297     
  2.62588425000E+07 -0.0156037       0.0122902      0.694238       -0.0814231      0.693072       -0.0777832     -0.0434965       0.0362018    
  3.00088200000E+07 -0.0149614       0.0125412      0.692686       -0.0831866      0.69122        -0.0853758     -0.0422506       0.0381619    
  3.37587975000E+07 -0.0147276       0.01292        0.691283       -0.0923717      0.690142       -0.0930345     -0.0390675       0.0418628    
  3.75087750000E+07 -0.0142116       0.0137912      0.689684       -0.102324       0.688481       -0.103088      -0.0348368       0.045095     
  4.12587525000E+07 -0.0135951       0.0147         0.687971       -0.11286        0.686239       -0.113279      -0.0300796       0.04733      
  4.50087300000E+07 -0.0129127       0.0155963      0.685555       -0.123301       0.684456       -0.123531      -0.0255592       0.0485142    
  4.87587075000E+07 -0.0122236       0.0165073      0.683328       -0.133828       0.682202       -0.133991      -0.0213632       0.048997     
  5.25086850000E+07 -0.0115267       0.0173442      0.681108       -0.143698       0.679641       -0.144038      -0.0176701       0.0491028    
  5.62586625000E+07 -0.0107521       0.0181866      0.678649       -0.153777       0.677037       -0.154145      -0.0144261       0.0489769    
  6.00086400000E+07 -0.00999239      0.0189917      0.676095       -0.163664       0.674507       -0.164075      -0.0115675       0.0487493    
  6.37586175000E+07 -0.00916748      0.0197328      0.67312        -0.173495       0.671588       -0.173938      -0.0089921       0.0484356    
  6.75085950000E+07 -0.00830542      0.0204425      0.669989       -0.183355       0.668646       -0.183963      -0.00672132      0.0481317    
  7.12585725000E+07 -0.00745715      0.0211111      0.667116       -0.193198       0.665628       -0.193667      -0.00461334      0.0477953    
  7.50085500000E+07 -0.00652695      0.0217662      0.663862       -0.202874       0.662576       -0.203528      -0.00271144      0.0474807    
  7.87585275000E+07 -0.00564777      0.022336       0.660754       -0.212434       0.65906        -0.212998      -0.00095975      0.0471498    
  8.25085050000E+07 -0.00473783      0.0228673      0.656879       -0.222141       0.655528       -0.222748       0.000676779     0.0468945    
  8.62584825000E+07 -0.00382214      0.023377       0.65325        -0.231483       0.651868       -0.232177       0.0021737       0.0466416    
  9.00084600000E+07 -0.00285902      0.0238502      0.649558       -0.241358       0.648062       -0.241747       0.00357281      0.0464668    
  9.37584375000E+07 -0.00192818      0.0242536      0.645569       -0.250731       0.644425       -0.251194       0.00494978      0.0462846    
  9.75084150000E+07 -0.00100422      0.0246832      0.641451       -0.259934       0.640099       -0.260583       0.00626039      0.0461381    
  1.01258392500E+08 -4.21454E-05     0.0250287      0.637655       -0.269224       0.63583        -0.269862       0.00753783      0.0460198    
  1.05008370000E+08  0.000905893     0.0253675      0.633297       -0.278679       0.631879       -0.279113       0.008773        0.0459421    
  1.08758347500E+08  0.00188469      0.0257138      0.628903       -0.287989       0.627387       -0.288385       0.010018        0.0458261    
  1.12508325000E+08  0.00291261      0.0259904      0.624174       -0.297047       0.622934       -0.297383       0.0112373       0.0457327    
  1.16258302500E+08  0.0038985       0.0262563      0.619548       -0.305937       0.61822        -0.306387       0.0123959       0.0456316    
  1.20008280000E+08  0.00490944      0.0265513      0.615009       -0.314795       0.61363        -0.31547        0.013605        0.0455416    
  1.23758257500E+08  0.00595608      0.0267642      0.610152       -0.323846       0.608722       -0.324238       0.0147092       0.0454063    
  1.27508235000E+08  0.00706188      0.0269645      0.605137       -0.332752       0.603726       -0.333115       0.015823        0.0452834    
  1.31258212500E+08  0.00813315      0.0271199      0.599841       -0.341521       0.598612       -0.341782       0.0168907       0.0451685    
  1.35008190000E+08  0.00928646      0.0272423      0.594685       -0.350074       0.593357       -0.350546       0.0179037       0.0450507    
  1.38758167500E+08  0.0104003       0.0272936      0.589319       -0.358593       0.587754       -0.35895        0.0188947       0.0448977    
  1.42508145000E+08  0.0115473       0.0273278      0.583795       -0.367326       0.582313       -0.367502       0.0198751       0.044842     
  1.46258122500E+08  0.0127082       0.0273129      0.577987       -0.375711       0.576799       -0.37591        0.0208697       0.044794     
  1.50008100000E+08  0.0138561       0.0272195      0.572366       -0.383949       0.571103       -0.384307       0.0218703       0.0447637    
  1.53758077500E+08  0.0149995       0.0271605      0.566418       -0.392136       0.565072       -0.392364       0.0228356       0.044723     
  1.57508055000E+08  0.0161424       0.026949       0.56051        -0.400447       0.558978       -0.400513       0.0238953       0.044711     
  1.61258032500E+08  0.017296        0.026775       0.554094       -0.408343       0.552879       -0.408559       0.0249442       0.0446644    
  1.65008010000E+08  0.0183954       0.0265296      0.548083       -0.416371       0.546667       -0.416513       0.0260126       0.0446403    
  1.68757987500E+08  0.019559        0.0262482      0.54151        -0.423997       0.540509       -0.424341       0.0270428       0.0444983    
  1.72507965000E+08  0.0205899       0.0259996      0.535273       -0.431624       0.533873       -0.4321         0.0281709       0.0443954    
  1.76257942500E+08  0.0216868       0.0256835      0.528953       -0.43987        0.527534       -0.439479       0.029279        0.0442685    
  1.80007920000E+08  0.0227676       0.0253288      0.521719       -0.447111       0.520982       -0.447093       0.0303332       0.0441018    
  1.83757897500E+08  0.0237748       0.0250006      0.515265       -0.454174       0.51394        -0.454397       0.0314737       0.0438783    
  1.87507875000E+08  0.0248697       0.0246941      0.508373       -0.461837       0.507211       -0.461864       0.0325413       0.0436459    
  1.91257852500E+08  0.0259247       0.024331       0.50135        -0.468935       0.500171       -0.468985       0.0336106       0.0433315    
  1.95007830000E+08  0.0269679       0.0239747      0.494234       -0.476044       0.493649       -0.47679        0.034714        0.0430845    
  1.98757807500E+08  0.0280158       0.023601       0.486629       -0.483334       0.486405       -0.483732       0.0356788       0.042784     
  2.02507785000E+08  0.0290601       0.0231854      0.479542       -0.489931       0.479266       -0.490843       0.0366848       0.0424432    
  2.06257762500E+08  0.0301328       0.0227601      0.47234        -0.496792       0.471844       -0.497444       0.0376359       0.0421477    
  2.10007740000E+08  0.0311997       0.0222703      0.464528       -0.503861       0.464432       -0.504141       0.0386476       0.041849     
  2.13757717500E+08  0.0322951       0.0217971      0.456947       -0.510345       0.456867       -0.510947       0.0396342       0.0415137    
  2.17507695000E+08  0.0333528       0.0212575      0.449725       -0.516931       0.449155       -0.517156       0.0406138       0.041226     
  2.21257672500E+08  0.0344019       0.0206822      0.44192        -0.523355       0.441299       -0.523497       0.0416464       0.040882     
  2.25007650000E+08  0.0353864       0.0200577      0.433723       -0.529693       0.433605       -0.529936       0.0427277       0.0404849    
  2.28757627500E+08  0.0363699       0.0193603      0.426026       -0.536257       0.425664       -0.536032       0.0437876       0.0401041    
  2.32507605000E+08  0.0373169       0.0186565      0.417945       -0.541806       0.417794       -0.5421         0.0448607       0.0396177    
  2.36257582500E+08  0.0382056       0.0179694      0.409902       -0.547386       0.409694       -0.547932       0.0458959       0.0391504    
  2.40007560000E+08  0.0390521       0.0172451      0.402006       -0.55353        0.401408       -0.553588       0.046962        0.0385468    
  2.43757537500E+08  0.0398193       0.016519       0.393166       -0.559232       0.392999       -0.55939        0.0479436       0.0379422    
  2.47507515000E+08  0.0406341       0.0157808      0.384948       -0.56444        0.384824       -0.565025       0.0489153       0.0372857    
  2.51257492500E+08  0.0413882       0.0150304      0.376454       -0.570136       0.376432       -0.570331       0.0498489       0.0365982    
  2.55007470000E+08  0.0420965       0.0142908      0.367805       -0.575078       0.367793       -0.575502       0.0507168       0.0359277    
  2.58757447500E+08  0.0427685       0.0135939      0.359445       -0.580386       0.359219       -0.580759       0.0515599       0.0352298    
  2.62507425000E+08  0.0434458       0.0128707      0.350428       -0.585213       0.350596       -0.585761       0.0523931       0.0344853    
  2.66257402500E+08  0.0441377       0.0121476      0.342007       -0.589845       0.341843       -0.590825       0.0532001       0.033816     
  2.70007380000E+08  0.0447699       0.0114112      0.333198       -0.594861       0.332912       -0.5955         0.0539847       0.0331523    
  2.73757357500E+08  0.0453686       0.0106828      0.324504       -0.599396       0.323996       -0.599979       0.0547676       0.0324588    
  2.77507335000E+08  0.0460342       0.00993058     0.315628       -0.604172       0.315148       -0.604492       0.0555325       0.031804     
  2.81257312500E+08  0.0467023       0.00915455     0.306606       -0.608457       0.306079       -0.60899        0.0563234       0.0311021    
  2.85007290000E+08  0.0473004       0.00834748     0.297742       -0.612708       0.297005       -0.61322        0.0571597       0.0303694    
  2.88757267500E+08  0.0478857       0.00750806     0.288481       -0.616848       0.287875       -0.616988       0.0579829       0.0296263    
  2.92507245000E+08  0.0484816       0.00665992     0.279388       -0.620668       0.278955       -0.621161       0.0587639       0.0288659    
  2.96257222500E+08  0.0490097       0.00575267     0.270214       -0.62488        0.269613       -0.625026       0.0595884       0.0280388    
  3.00007200000E+08  0.0495268       0.00480169     0.260591       -0.628724       0.260279       -0.628776       0.0603822       0.0271665    
  3.03757177500E+08  0.0500022       0.00383756     0.251155       -0.632047       0.251114       -0.632398       0.0611062       0.0262752    
  3.07507155000E+08  0.0504681       0.00289018     0.242094       -0.635644       0.241625       -0.635638       0.0618112       0.0253415    
  3.11257132500E+08  0.0508513       0.0018968      0.232621       -0.638956       0.232342       -0.63896        0.0624656       0.0243989    
  3.15007110000E+08  0.0511963       0.000926856    0.223046       -0.641726       0.222791       -0.64242        0.0630985       0.0234548    
  3.18757087500E+08  0.0514867      -0.000110968    0.213579       -0.645195       0.213163       -0.645458       0.0636922       0.0225419    
  3.22507065000E+08  0.0517832      -0.00112018     0.204081       -0.648035       0.203774       -0.648216       0.0642189       0.0216248    
  3.26257042500E+08  0.0520556      -0.00210376     0.194433       -0.650418       0.19429        -0.650912       0.0647509       0.0206359    
  3.30007020000E+08  0.0523025      -0.00311382     0.184693       -0.652939       0.184902       -0.653449       0.0653153       0.0197221    
  3.33756997500E+08  0.0524754      -0.00406299     0.175415       -0.655362       0.175013       -0.655916       0.0658415       0.0188277    
  3.37506975000E+08  0.0526934      -0.00506312     0.165769       -0.657931       0.165328       -0.65812        0.0663878       0.0179106    
  3.41256952500E+08  0.052917       -0.00609927     0.15568        -0.660176       0.155477       -0.660518       0.0669373       0.0169749    
  3.45006930000E+08  0.0531474      -0.00704798     0.146053       -0.662035       0.145795       -0.662492       0.0674653       0.0159542    
  3.48756907500E+08  0.0533775      -0.00804836     0.136464       -0.664111       0.135937       -0.66457        0.0680383       0.0149883    
  3.52506885000E+08  0.0535981      -0.00911356     0.126421       -0.666315       0.126092       -0.665995       0.068547        0.0138918    
  3.56256862500E+08  0.0537425      -0.0101091      0.116815       -0.667475       0.116252       -0.667457       0.069027        0.0128393    
  3.60006840000E+08  0.0539589      -0.0111216      0.107082       -0.669008       0.106376       -0.668997       0.0695043       0.011748     
  3.63756817500E+08  0.0541116      -0.0122398      0.0973308      -0.670316       0.0965357      -0.670196       0.069944        0.0106182    
  3.67506795000E+08  0.0542617      -0.0133638      0.0870612      -0.671727       0.0867386      -0.671307       0.0702591       0.00940887   
  3.71256772500E+08  0.0544451      -0.0144459      0.0770555      -0.671665       0.0766743      -0.672561       0.0705876       0.00825617   
  3.75006750000E+08  0.0545972      -0.0156581      0.0675911      -0.673582       0.0667018      -0.67324        0.0708524       0.00711318   
  3.78756727500E+08  0.0546304      -0.0167877      0.0568295      -0.674026       0.0568335      -0.674013       0.0710966       0.00596306   
  3.82506705000E+08  0.0547684      -0.0179519      0.0476431      -0.674499       0.0469418      -0.674738       0.0713306       0.00480222   
  3.86256682500E+08  0.0547366      -0.019011       0.0373488      -0.675132       0.0369801      -0.67486        0.0715168       0.0037311    
  3.90006660000E+08  0.0547397      -0.0201711      0.0277435      -0.67496        0.0270419      -0.675312       0.071698        0.00263343   
  3.93756637500E+08  0.0547488      -0.0213654      0.0179714      -0.67555        0.0171295      -0.675372       0.0718884       0.00156268   
  3.97506615000E+08  0.0547077      -0.0224084      0.00712161     -0.67517        0.00711041     -0.675507       0.0720715       0.000499161  
  4.01256592500E+08  0.0546654      -0.0235337     -0.00256697     -0.675147      -0.00290481     -0.675156       0.0722948      -0.000577543  
  4.05006570000E+08  0.054584       -0.024587      -0.0125859      -0.674698      -0.0126258      -0.674951       0.0724898      -0.00163859   
  4.08756547500E+08  0.054562       -0.025655      -0.0221626      -0.674347      -0.0227816      -0.674309       0.0726488      -0.00280109   
  4.12506525000E+08  0.0544889      -0.0267042     -0.0321627      -0.673861      -0.0327505      -0.673844       0.0728131      -0.00394091   
  4.16256502500E+08  0.054418       -0.0276716     -0.0418788      -0.672754      -0.0425674      -0.673201       0.0729464      -0.00506536   
  4.20006480000E+08  0.0544031      -0.0286602     -0.0518186      -0.672041      -0.0525564      -0.672317       0.0730869      -0.00627438   
  4.23756457500E+08  0.0543375      -0.0296435     -0.0619459      -0.670911      -0.062217       -0.671321       0.0731577      -0.00747851   
  4.27506435000E+08  0.0543246      -0.0306027     -0.0718385      -0.669871      -0.0721572      -0.670054       0.0732026      -0.00874093   
  4.31256412500E+08  0.0543137      -0.0315977     -0.0816254      -0.66878       -0.0820048      -0.668664       0.0731737      -0.00997958   
  4.35006390000E+08  0.0542942      -0.032583      -0.0914731      -0.667064      -0.0917369      -0.667273       0.0730751      -0.0112404    
  4.38756367500E+08  0.0543073      -0.0335977     -0.101038       -0.665508      -0.101963       -0.66576        0.0730117      -0.012427     
  4.42506345000E+08  0.0542272      -0.0346461     -0.111359       -0.663952      -0.111768       -0.663875       0.0728955      -0.0135675    
  4.46256322500E+08  0.0541471      -0.0357351     -0.121234       -0.661928      -0.121491       -0.662081       0.072788       -0.0147078    
  4.50006300000E+08  0.0540655      -0.036687      -0.130755       -0.659773      -0.131126       -0.659907       0.0726597      -0.0158328    
  4.53756277500E+08  0.0539571      -0.0377498     -0.140541       -0.657764      -0.140669       -0.657761       0.0725206      -0.0169575    
  4.57506255000E+08  0.0537532      -0.0387548     -0.150339       -0.655126      -0.15043        -0.655402       0.0723983      -0.0180295    
  4.61256232500E+08  0.0535509      -0.0397343     -0.159738       -0.652996      -0.16023        -0.652748       0.0722777      -0.0192262    
  4.65006210000E+08  0.0532973      -0.0407267     -0.170039       -0.650326      -0.16964        -0.650092       0.0721904      -0.0204282    
  4.68756187500E+08  0.0530839      -0.0416975     -0.179983       -0.647004      -0.179015       -0.647404       0.0720454      -0.0216506    
  4.72506165000E+08  0.0527718      -0.0425974     -0.188814       -0.644106      -0.188851       -0.644372       0.0718809      -0.0228502    
  4.76256142500E+08  0.0524383      -0.0435189     -0.198637       -0.641077      -0.198279       -0.641321       0.0716848      -0.0240875    
  4.80006120000E+08  0.0521862      -0.0443518     -0.207821       -0.637395      -0.207686       -0.638339       0.0714314      -0.0253418    
  4.83756097500E+08  0.0519269      -0.0452273     -0.217416       -0.634439      -0.217145       -0.634483       0.0711752      -0.026635     
  4.87506075000E+08  0.0515583      -0.0460964     -0.226611       -0.630663      -0.226498       -0.631302       0.070825       -0.027935     
  4.91256052500E+08  0.05121        -0.0469496     -0.235235       -0.627205      -0.235757       -0.62771        0.0705298      -0.0291307    
  4.95006030000E+08  0.0508888      -0.0477869     -0.244787       -0.623372      -0.244944       -0.623922       0.0701164      -0.0303889    
  4.98756007500E+08  0.0505102      -0.0485904     -0.253495       -0.619639      -0.254003       -0.620129       0.069704       -0.0316267    
