!---------------------------------------------------------------------
! ZVRE, 3.52
!---------------------------------------------------------------------
! symbol freq-unit parameter-type data-format keyword impedance-ohm
#        HZ        S              RI          R       50
!---------------------------------------------------------------------
! freq                reS11          imS11           reS21          imS21           reS12          imS12           reS22          imS22           
  9.00000000000E+03  1.00396        -0.00601339    -0.000123133    -0.000133391    2.74425E-06     5.42032E-05    1.00055         0.00210217   
  1.25897750000E+06  0.99936        -0.018002      -2.96486E-05    -2.01647E-06   -3.93168E-05     3.87545E-05    0.997007       -0.0587535    
  2.50895500000E+06  0.999453       -0.0363566      1.54248E-08     1.72768E-05    1.20797E-05    -2.1838E-06     0.991664       -0.116821     
  3.75893250000E+06  0.998097       -0.0552536      1.55108E-05    -4.56034E-06   -6.32434E-05     3.54122E-05    0.983322       -0.174551     
  5.00891000000E+06  0.997349       -0.0734747      3.36667E-05     4.70372E-06   -1.64783E-05    -1.3753E-05     0.971208       -0.231892     
  6.25888750000E+06  0.995805       -0.0914554     -4.33553E-05     4.63145E-05    3.35252E-05     2.93787E-06    0.956066       -0.28817      
  7.50886500000E+06  0.994225       -0.110153      -7.83865E-06     2.39333E-05   -2.50745E-05    -4.38852E-05    0.937271       -0.343401     
  8.75884250000E+06  0.991932       -0.128282      -3.77342E-06     1.37004E-05   -1.22055E-05     3.34348E-06    0.915445       -0.397483     
  1.00088200000E+07  0.989288       -0.146536      -5.32774E-06    -2.90016E-08    1.42719E-05     3.43975E-05    0.890315       -0.450438     
  1.12587975000E+07  0.986271       -0.164771       2.86937E-05     2.83393E-05   -4.29955E-05     7.52067E-06    0.862481       -0.501906     
  1.25087750000E+07  0.982724       -0.183096       1.98418E-06     2.50841E-05   -1.22405E-05     1.58325E-05    0.830833       -0.551702     
  1.37587525000E+07  0.979494       -0.201206       4.14616E-06     9.15539E-06   -1.30277E-05    -1.96452E-05    0.796939       -0.598897     
  1.50087300000E+07  0.975688       -0.2194        -1.90573E-05     3.48215E-05    1.51071E-05     7.49419E-06    0.759811       -0.644888     
  1.62587075000E+07  0.971216       -0.237254       2.41988E-05     2.13132E-05   -3.6898E-05      5.2075E-05     0.720581       -0.688298     
  1.75086850000E+07  0.966533       -0.255737      -2.26968E-06    -1.48535E-05    1.29531E-05     3.00444E-06    0.678316       -0.728821     
  1.87586625000E+07  0.961774       -0.273662      -2.09874E-05    -4.11946E-05    1.7102E-05     -3.78687E-05    0.633142       -0.767905     
  2.00086400000E+07  0.956005       -0.291818      -3.66282E-05    -3.19883E-05    1.00825E-05    -1.50853E-05    0.58654        -0.803667     
  2.12586175000E+07  0.950349       -0.309347       4.92582E-05    -5.99017E-05    4.08989E-06    -3.43538E-05    0.537723       -0.83646      
  2.25085950000E+07  0.944508       -0.327443      -3.18947E-06     2.16758E-05   -1.0466E-05     -3.31259E-05    0.487121       -0.866316     
  2.37585725000E+07  0.937937       -0.345087       4.06164E-05     1.19545E-05   -1.62747E-05     6.44272E-06    0.434005       -0.8933       
  2.50085500000E+07  0.930897       -0.36316       -3.36579E-05    -7.01052E-06    4.53658E-05    -6.82346E-06    0.379308       -0.916627     
  2.62585275000E+07  0.92381        -0.380353      -2.86453E-05    -1.37738E-06   -2.88359E-05    -3.16328E-05    0.324142       -0.937211     
  2.75085050000E+07  0.916089       -0.398095      -3.06913E-05     2.98533E-06    1.99106E-05     1.37484E-05    0.266351       -0.95331      
  2.87584825000E+07  0.907977       -0.415423       8.20743E-06    -4.18719E-05   -6.13325E-07    -6.1904E-05     0.20893        -0.968261     
  3.00084600000E+07  0.900199       -0.432908       2.27195E-05    -1.13194E-05    4.90273E-05     1.51204E-05    0.149614       -0.979044     
  3.12584375000E+07  0.892083       -0.450295      -1.24222E-05    -5.27322E-05    2.20894E-05    -1.27976E-05    0.0906214      -0.985656     
  3.25084150000E+07  0.883146       -0.467859      -1.16943E-05    -2.86744E-05   -5.00786E-07    -6.22455E-05    0.0307717      -0.988337     
  3.37583925000E+07  0.873234       -0.48499       -4.96981E-05    -5.24815E-05   -8.18565E-06    -3.41082E-05   -0.0288647      -0.989431     
  3.50083700000E+07  0.863539       -0.501797       1.82387E-05    -6.68259E-06   -3.1396E-05     -4.79396E-05   -0.0890276      -0.984814     
  3.62583475000E+07  0.853427       -0.518522      -2.35929E-05    -1.61767E-05   -4.0137E-05     -2.77982E-05   -0.149388       -0.976442     
  3.75083250000E+07  0.843058       -0.535607       9.32601E-06    -1.98546E-05   -2.40934E-05    -1.81243E-05   -0.208772       -0.964513     
  3.87583025000E+07  0.831741       -0.552353      -3.3827E-05      4.43514E-05   -1.7671E-05     -9.84728E-05   -0.267099       -0.949891     
  4.00082800000E+07  0.820639       -0.569105      -5.86574E-05    -5.44763E-05   -7.64656E-05    -4.19926E-05   -0.32494        -0.930396     
  4.12582575000E+07  0.808975       -0.58515       -1.15653E-05    -4.79173E-05   -0.000101707    -1.89173E-05   -0.381599       -0.907545     
  4.25082350000E+07  0.796561       -0.601262      -6.96484E-05    -2.02469E-05   -5.11288E-05    -8.85575E-05   -0.436323       -0.880836     
  4.37582125000E+07  0.784414       -0.617473      -7.25621E-05    -7.74762E-05   -8.60945E-05    -2.83093E-05   -0.490363       -0.851609     
  4.50081900000E+07  0.771136       -0.633407      -7.96079E-05    -7.53761E-05   -8.39475E-05    -0.000111452   -0.542031       -0.818153     
  4.62581675000E+07  0.757245       -0.64909       -6.38419E-05    -6.40236E-05   -7.13016E-05    -2.07276E-05   -0.591749       -0.781851     
  4.75081450000E+07  0.7443         -0.664635      -0.000113309    -2.33591E-05   -8.14342E-05    -8.02056E-05   -0.639011       -0.742434     
  4.87581225000E+07  0.729754       -0.680057      -8.09869E-05    -0.000108143   -6.92391E-05    -6.51887E-05   -0.684066       -0.699815     
  5.00081000000E+07  0.715111       -0.695612      -0.000175798    -8.29707E-05   -0.000152883    -0.000106451   -0.726119       -0.654141     
  5.12580775000E+07  0.700221       -0.710469      -0.000153687    -9.94931E-05   -0.000114974    -0.000104547   -0.765667       -0.605975     
  5.25080550000E+07  0.684766       -0.725369      -0.0001641      -8.88772E-05   -0.000193914    -0.000125884   -0.802213       -0.555399     
  5.37580325000E+07  0.668217       -0.739803      -0.000190579    -0.0001454     -0.000262184    -0.000124529   -0.834982       -0.502369     
  5.50080100000E+07  0.651948       -0.754417      -0.000261953    -0.000158074   -0.000305868    -0.000150829   -0.864599       -0.446665     
  5.62579875000E+07  0.635136       -0.768252      -0.000284136    -0.000118313   -0.000299078    -0.000146585   -0.890921       -0.389471     
  5.75079650000E+07  0.617666       -0.782153      -0.000386377    -0.000130559   -0.000388125    -0.000123217   -0.913379       -0.330161     
  5.87579425000E+07  0.600035       -0.795368      -0.000327558    -0.000193645   -0.000383122    -0.000145899   -0.931779       -0.270861     
  6.00079200000E+07  0.582015       -0.809096      -0.000403539    -0.000196469   -0.000447172    -0.000176775   -0.946602       -0.207932     
  6.12578975000E+07  0.562767       -0.82249       -0.000464       -0.000195689   -0.000523169    -0.000130277   -0.957193       -0.14573      
  6.25078750000E+07  0.543238       -0.834862      -0.000522474    -0.000220533   -0.000629699    -0.000189478   -0.963556       -0.0822236    
  6.37578525000E+07  0.523407       -0.846845      -0.000559437    -0.000230563   -0.000696441    -0.000239808   -0.965732       -0.0182038    
  6.50078300000E+07  0.502988       -0.859127      -0.00069249     -0.000309474   -0.000750076    -0.000192633   -0.96346         0.0458715    
  6.62578075000E+07  0.482375       -0.871089      -0.000788365    -0.000346916   -0.000900551    -0.000176382   -0.957498        0.110054     
  6.75077850000E+07  0.461494       -0.882119      -0.000908948    -0.000387611   -0.00107031     -0.000171768   -0.946909        0.174208     
  6.87577625000E+07  0.439149       -0.892977      -0.00108173     -0.000433067   -0.00113713     -0.000209912   -0.932403        0.237346     
  7.00077400000E+07  0.41621        -0.903038      -0.00126732     -0.000477874   -0.00133103     -0.000163772   -0.913176        0.299368     
  7.12577175000E+07  0.393337       -0.913084      -0.00143634     -0.000518554   -0.00145607     -0.000194767   -0.88937         0.360354     
  7.25076950000E+07  0.370088       -0.922333      -0.00174265     -0.000590516   -0.00168458     -0.000173055   -0.862039        0.419887     
  7.37576725000E+07  0.345476       -0.931836      -0.00204882     -0.000576486   -0.0018943      -0.000126219   -0.830293        0.477551     
  7.50076500000E+07  0.321316       -0.940134      -0.00238697     -0.00053848    -0.00211994     -0.000173893   -0.794575        0.533198     
  7.62576275000E+07  0.29611        -0.948047      -0.00278863     -0.00055252    -0.00242322     -5.71462E-05   -0.755182        0.586371     
  7.75076050000E+07  0.270181       -0.954882      -0.00320342     -0.000499411   -0.00274773     -5.91672E-06   -0.711957        0.636889     
  7.87575825000E+07  0.243193       -0.96226       -0.00372333     -0.000372855   -0.00312569      8.77818E-05   -0.664767        0.684735     
  8.00075600000E+07  0.217062       -0.968859      -0.00427058     -0.000315848   -0.00349799      0.000129795   -0.614509        0.728978     
  8.12575375000E+07  0.189813       -0.972975      -0.00487395     -0.00010662    -0.00398421      0.000166242   -0.561039        0.769753     
  8.25075150000E+07  0.161325       -0.978542      -0.00559171      0.000136862   -0.0045063       0.000365767   -0.504827        0.807026     
  8.37574925000E+07  0.132889       -0.982049      -0.00635575      0.000527331   -0.00513606      0.000444202   -0.445337        0.840221     
  8.50074700000E+07  0.103908       -0.985561      -0.00706428      0.000937132   -0.00580957      0.000591594   -0.383701        0.869544     
  8.62574475000E+07  0.0741913      -0.988139      -0.00796526      0.00136303    -0.00651966      0.000872434   -0.319344        0.893723     
  8.75074250000E+07  0.0434009      -0.98933       -0.00891465      0.00202941    -0.00744635      0.00118315    -0.253521        0.914193     
  8.87574025000E+07  0.0126227      -0.99004       -0.00986842      0.00276894    -0.0084455       0.00159712    -0.185066        0.929383     
  9.00073800000E+07 -0.0189722      -0.989558      -0.0108579       0.00350184    -0.00948941      0.0021119     -0.116135        0.939605     
  9.12573575000E+07 -0.0507166      -0.987404      -0.0118509       0.00448646    -0.0107921       0.00269114    -0.0460141       0.94479      
  9.25073350000E+07 -0.0836361      -0.985242      -0.0131038       0.0056502     -0.0121677       0.00341549     0.0248898       0.944586     
  9.37573125000E+07 -0.116945       -0.981544      -0.0142323       0.00686204    -0.0137169       0.00437852     0.0957626       0.939786     
  9.50072900000E+07 -0.151017       -0.976024      -0.0155045       0.00830171    -0.0154652       0.00554322     0.166913        0.928539     
  9.62572675000E+07 -0.184782       -0.969389      -0.0168378       0.0099478     -0.0172211       0.00698652     0.237472        0.912317     
  9.75072450000E+07 -0.220209       -0.961368      -0.0182958       0.0117531     -0.0192623       0.00873696     0.307092        0.890072     
  9.87572225000E+07 -0.255273       -0.952402      -0.0197111       0.0139227     -0.0213549       0.0109089      0.375447        0.862739     
  1.00007200000E+08 -0.291087       -0.940489      -0.0211767       0.0161179     -0.0235644       0.0133525      0.44189         0.829985     
  1.01257177500E+08 -0.327365       -0.928356      -0.0230295       0.0187466     -0.0260788       0.0164292      0.50638         0.791615     
  1.02507155000E+08 -0.363964       -0.913219      -0.0249042       0.0218585     -0.0285427       0.0199203      0.56758         0.746982     
  1.03757132500E+08 -0.401171       -0.896431      -0.0267483       0.0253953     -0.0310486       0.0241327      0.625707        0.697527     
  1.05007110000E+08 -0.437263       -0.877917      -0.0289394       0.0293193     -0.0334913       0.0290547      0.680949        0.642427     
  1.06257087500E+08 -0.474841       -0.856938      -0.031107        0.0339361     -0.0357068       0.0347323      0.731416        0.58309      
  1.07507065000E+08 -0.512092       -0.833818      -0.0332915       0.0392794     -0.037834        0.0412648      0.777254        0.517969     
  1.08757042500E+08 -0.549338       -0.808609      -0.0355224       0.0455604     -0.0398371       0.0484997      0.81807         0.448639     
  1.10007020000E+08 -0.586088       -0.779704      -0.0379285       0.0528314     -0.0411572       0.0567523      0.852456        0.374423     
  1.11256997500E+08 -0.622415       -0.748957      -0.0399572       0.0612532     -0.042058        0.066221       0.881271        0.296647     
  1.12506975000E+08 -0.658408       -0.714251      -0.0415786       0.0711246     -0.042373        0.0766552      0.902933        0.214835     
  1.13756952500E+08 -0.694038       -0.676928      -0.0428368       0.0826383     -0.0417028       0.0880823      0.917022        0.130487     
  1.15006930000E+08 -0.728563       -0.635962      -0.0429782       0.0957761     -0.0402026       0.100689       0.922864        0.0433742    
  1.16256907500E+08 -0.761182       -0.59202       -0.042025        0.110713      -0.0374866       0.114764       0.920014       -0.0455536    
  1.17506885000E+08 -0.791581       -0.543237      -0.0394161       0.127417      -0.033469        0.12979        0.908245       -0.135451     
  1.18756862500E+08 -0.819516       -0.490336      -0.0342655       0.146036      -0.0276088       0.145903       0.886072       -0.226616     
  1.20006840000E+08 -0.845337       -0.434263      -0.0267119       0.166551      -0.0198874       0.163386       0.853744       -0.314999     
  1.21256817500E+08 -0.867308       -0.374356      -0.0156188       0.188397      -0.0096435       0.182133       0.810358       -0.402355     
  1.22506795000E+08 -0.884581       -0.309631      -0.000669538     0.211319       0.0031251       0.202268       0.756021       -0.486028     
  1.23756772500E+08 -0.896688       -0.241149       0.0190541       0.234731       0.0192103       0.223276       0.690215       -0.563515     
  1.25006750000E+08 -0.902686       -0.169578       0.0436704       0.257943       0.0391412       0.245331       0.612912       -0.634016     
  1.26256727500E+08 -0.901352       -0.0948352      0.0737077       0.279941       0.0636524       0.268138       0.525223       -0.695218     
  1.27506705000E+08 -0.891723       -0.0182319      0.109442        0.299974       0.0938858       0.291          0.427607       -0.744594     
  1.28756682500E+08 -0.872712        0.0601497      0.150585        0.316517       0.130415        0.3129         0.321615       -0.779623     
  1.30006660000E+08 -0.84382         0.137273       0.196749        0.329033       0.174058        0.332798       0.208863       -0.798327     
  1.31256637500E+08 -0.804009        0.211819       0.248651        0.336523       0.225799        0.348939       0.093549       -0.798422     
  1.32506615000E+08 -0.753479        0.282083       0.305076        0.337734       0.286006        0.359052      -0.0211938      -0.778966     
  1.33756592500E+08 -0.693053        0.344428       0.366228        0.331649       0.354076        0.360138      -0.131896       -0.738585     
  1.35006570000E+08 -0.623708        0.397766       0.430366        0.316133       0.428947        0.349691      -0.232077       -0.679047     
  1.36256547500E+08 -0.547624        0.438501       0.49764         0.291168       0.507427        0.325076      -0.317635       -0.60195      
  1.37506525000E+08 -0.468162        0.466627       0.564841        0.25354        0.585857        0.282753      -0.385063       -0.511764     
  1.38756502500E+08 -0.387691        0.480422       0.630352        0.20291        0.66053         0.224259      -0.431422       -0.413428     
  1.40006480000E+08 -0.309653        0.481189       0.690443        0.139566       0.725755        0.149536      -0.455346       -0.312614     
  1.41256457500E+08 -0.237413        0.470413       0.742348        0.0635006      0.777806        0.0608494     -0.457567       -0.215459     
  1.42506435000E+08 -0.172731        0.449912       0.78234        -0.0236382      0.813857       -0.0371828     -0.442222       -0.126342     
  1.43756412500E+08 -0.116846        0.422287       0.808463       -0.118052       0.83238        -0.139378      -0.412128       -0.0488617    
  1.45006390000E+08 -0.0697157       0.390827       0.818484       -0.216925       0.832985       -0.24209       -0.371466        0.0152718    
  1.46256367500E+08 -0.0316833       0.356543       0.812879       -0.31638        0.818069       -0.341605      -0.324681        0.0654348    
  1.47506345000E+08 -0.00148025      0.321958       0.792035       -0.412194       0.789294       -0.434798      -0.2752          0.102058     
  1.48756322500E+08  0.0214784       0.287968       0.757395       -0.501449       0.749677       -0.520365      -0.225646        0.126832     
  1.50006300000E+08  0.0383084       0.255876       0.712204       -0.583957       0.701571       -0.596492      -0.178664        0.140664     
  1.51256277500E+08  0.0499962       0.226177       0.659343       -0.656258       0.647386       -0.663527      -0.135699        0.145973     
  1.52506255000E+08  0.0576445       0.199213       0.600055       -0.719842       0.589376       -0.72247       -0.0975857       0.144623     
  1.53756232500E+08  0.0622749       0.175133       0.537175       -0.772934       0.528016       -0.773055      -0.0648381       0.138404     
  1.55006210000E+08  0.0644713       0.15412        0.471219       -0.81787        0.464807       -0.815421      -0.0371448       0.128652     
  1.56256187500E+08  0.064941        0.135938       0.405475       -0.854911       0.400963       -0.851563      -0.0146363       0.11702      
  1.57506165000E+08  0.0645275       0.120534       0.338548       -0.884716       0.336824       -0.880917       0.00340726      0.104278     
  1.58756142500E+08  0.0635175       0.107355       0.273317       -0.908316       0.272838       -0.905036       0.0178128       0.0914337    
  1.60006120000E+08  0.0623288       0.0961881      0.208959       -0.925169       0.209806       -0.923059       0.028631        0.078969     
  1.61256097500E+08  0.0611566       0.086634       0.145441       -0.937905       0.146634       -0.936219       0.0369361       0.0671129    
  1.62506075000E+08  0.0600685       0.0786334      0.0839564      -0.94582        0.0854133      -0.945064       0.043037        0.0560694    
  1.63756052500E+08  0.0593979       0.0717903      0.0235679      -0.949194       0.0254677      -0.949872       0.0474324       0.0462334    
  1.65006030000E+08  0.059193        0.0658278     -0.0339303      -0.949562      -0.0331731      -0.950745       0.0506129       0.037279     
  1.66256007500E+08  0.059139        0.0605246     -0.091544       -0.945983      -0.0898125      -0.94771        0.0527141       0.0292903    
