!---------------------------------------------------------------------
! ZVRE, 3.52
!---------------------------------------------------------------------
! symbol freq-unit parameter-type data-format keyword impedance-ohm
#        HZ        S              RI          R       50
!---------------------------------------------------------------------
! freq                reS11          imS11           reS21          imS21           reS12          imS12           reS22          imS22           
  9.00000000000E+03  0.000620276     0.000751564    1.00177         0.00147104     0.99753        -0.00191578     0.00346706      0.000370791  
  1.25897750000E+06  0.00327139      0.00334068     0.995305       -0.036281       0.994702       -0.034877       0.00335326      0.00350193   
  2.50895500000E+06  0.00420356      0.00578454     0.993226       -0.0712146      0.992266       -0.0700369      0.00446611      0.00613249   
  3.75893250000E+06  0.00517068      0.00795064     0.989004       -0.105684       0.98857        -0.104594       0.0056397       0.00848511   
  5.00891000000E+06  0.0062204       0.00997314     0.984586       -0.139619       0.983887       -0.13928        0.00689834      0.0105528    
  6.25888750000E+06  0.00727413      0.01171        0.978591       -0.173393       0.978012       -0.172987       0.00836625      0.012517     
  7.50886500000E+06  0.00847894      0.0134463      0.971784       -0.2075         0.971002       -0.206979       0.0100315       0.0142989    
  8.75884250000E+06  0.00977781      0.0150089      0.963315       -0.240791       0.963099       -0.240092       0.0117077       0.0159152    
  1.00088200000E+07  0.0111538       0.0164573      0.954043       -0.274095       0.953513       -0.273066       0.0136202       0.0173476    
  1.12587975000E+07  0.0125679       0.0178231      0.943733       -0.306906       0.943408       -0.305978       0.0156186       0.0185767    
  1.25087750000E+07  0.0140343       0.0190252      0.932051       -0.338799       0.931931       -0.338513       0.0177111       0.0195624    
  1.37587525000E+07  0.0155499       0.0199825      0.919963       -0.370365       0.919493       -0.370314       0.0199043       0.0203578    
  1.50087300000E+07  0.0171687       0.0208728      0.90597        -0.402529       0.905633       -0.401477       0.0221434       0.0209793    
  1.62587075000E+07  0.0188378       0.0216827      0.890982       -0.433309       0.891007       -0.432505       0.0243593       0.0213298    
  1.75086850000E+07  0.0204516       0.0222585      0.875608       -0.463482       0.875426       -0.462781       0.0266891       0.0215733    
  1.87586625000E+07  0.0223006       0.022722       0.858464       -0.49407        0.858119       -0.49304        0.0289915       0.0215029    
  2.00086400000E+07  0.0240046       0.0230575      0.840775       -0.522864       0.840712       -0.521651       0.0312715       0.0212211    
  2.12586175000E+07  0.0258054       0.022989       0.821891       -0.551416       0.821655       -0.550221       0.0335674       0.0207243    
  2.25085950000E+07  0.0274439       0.0230332      0.802146       -0.578823       0.80195        -0.578638       0.0357293       0.0201882    
  2.37585725000E+07  0.0290028       0.0228523      0.781678       -0.605941       0.78126        -0.605484       0.0378173       0.0192937    
  2.50085500000E+07  0.0306302       0.0225331      0.760176       -0.632353       0.759674       -0.631758       0.0397684       0.0183215    
  2.62585275000E+07  0.0322083       0.0219301      0.73781        -0.65831        0.737699       -0.657038       0.0417797       0.0171841    
  2.75085050000E+07  0.033751        0.0212902      0.714483       -0.683179       0.713593       -0.68309        0.0435928       0.0154716    
  2.87584825000E+07  0.0351675       0.0200953      0.689938       -0.707105       0.69011        -0.706746       0.0451092       0.0145595    
  3.00084600000E+07  0.0363746       0.0193442      0.665173       -0.730451       0.665332       -0.72963        0.0465679       0.0131886    
  3.12584375000E+07  0.0375094       0.0183954      0.639579       -0.753051       0.639502       -0.752021       0.0479476       0.0117166    
  3.25084150000E+07  0.0385188       0.0171741      0.612899       -0.774358       0.6127         -0.773699       0.0492079       0.0100826    
  3.37583925000E+07  0.0395922       0.0158474      0.586255       -0.794935       0.585481       -0.794488       0.0503252       0.00835158   
  3.50083700000E+07  0.0403973       0.0144589      0.558005       -0.814637       0.557897       -0.814501       0.0513562       0.00658579   
  3.62583475000E+07  0.0411012       0.0127521      0.529067       -0.833979       0.529184       -0.833049       0.052213        0.00486616   
  3.75083250000E+07  0.0416785       0.0110201      0.50025        -0.851783       0.499859       -0.850956       0.0529199       0.00305383   
  3.87583025000E+07  0.0420462       0.00911694     0.470225       -0.868542       0.469689       -0.867696       0.0536756       0.00127129   
  4.00082800000E+07  0.0423306       0.00713758     0.439167       -0.884694       0.439201       -0.883588       0.0540446      -0.000505283  
  4.12582575000E+07  0.0422293       0.00521666     0.408019       -0.89994        0.407804       -0.898215       0.054492       -0.00228689   
  4.25082350000E+07  0.0420405       0.00315164     0.376438       -0.913349       0.37611        -0.912147       0.0547323      -0.00402476   
  4.37582125000E+07  0.0416263       0.0010268      0.344261       -0.925665       0.3437         -0.924703       0.0549365      -0.00563357   
  4.50081900000E+07  0.0410655      -0.00122008     0.311749       -0.937776       0.310656       -0.936169       0.055039       -0.00729468   
  4.62581675000E+07  0.0401241      -0.0033821      0.277902       -0.947817       0.277617       -0.94639        0.0550702      -0.0089149    
  4.75081450000E+07  0.039229       -0.00549133     0.24462        -0.957133       0.243922       -0.955484       0.055159       -0.0102903    
  4.87581225000E+07  0.037875       -0.00759974     0.210571       -0.96489        0.209973       -0.96342        0.055141       -0.0118171    
  5.00081000000E+07  0.0363506      -0.00975529     0.176287       -0.971975       0.175747       -0.969994       0.0551125      -0.0131186    
  5.12580775000E+07  0.0347575      -0.0118426      0.14186        -0.977753       0.140705       -0.975234       0.0549895      -0.0144337    
  5.25080550000E+07  0.0327394      -0.013741       0.106668       -0.981951       0.106124       -0.979149       0.0550317      -0.0157162    
  5.37580325000E+07  0.0306261      -0.0156029      0.0716771      -0.984964       0.0710264      -0.981967       0.0549921      -0.0169156    
  5.50080100000E+07  0.0283397      -0.0175002      0.0367907      -0.98647        0.0365285      -0.983185       0.0552555      -0.0180927    
  5.62579875000E+07  0.0256694      -0.0191998      0.0016132      -0.987744       0.00136713     -0.983559       0.0553223      -0.0193944    
  5.75079650000E+07  0.0231084      -0.0207154     -0.0335386      -0.987056      -0.0333096      -0.982636       0.0555591      -0.0205922    
  5.87579425000E+07  0.0201969      -0.0221356     -0.068812       -0.985206      -0.0679347      -0.98011        0.0558402      -0.0219419    
  6.00079200000E+07  0.0170813      -0.0234091     -0.104435       -0.981919      -0.103252       -0.976151       0.0561638      -0.0231581    
  6.12578975000E+07  0.0137227      -0.0245946     -0.139561       -0.977111      -0.137647       -0.971686       0.0566337      -0.0245827    
  6.25078750000E+07  0.0102905      -0.0255843     -0.175137       -0.970989      -0.171322       -0.965533       0.0572243      -0.0259382    
  6.37578525000E+07  0.00666109     -0.0263027     -0.210152       -0.964152      -0.204811       -0.958102       0.0577787      -0.0277212    
  6.50078300000E+07  0.00285536     -0.0267731     -0.244663       -0.955243      -0.239006       -0.950043       0.0583985      -0.0294069    
  6.62578075000E+07 -0.00101076     -0.0271871     -0.279489       -0.945409      -0.271839       -0.940421       0.0590791      -0.0312438    
  6.75077850000E+07 -0.00516184     -0.0273055     -0.312852       -0.934302      -0.30521        -0.92998        0.0594734      -0.0334819    
  6.87577625000E+07 -0.00936737     -0.0270023     -0.34686        -0.921864      -0.337647       -0.917639       0.0602036      -0.0358397    
  7.00077400000E+07 -0.0135957      -0.0265168     -0.379684       -0.907594      -0.369508       -0.9054         0.0606474      -0.0383796    
  7.12577175000E+07 -0.0179694      -0.0257856     -0.412783       -0.892115      -0.401732       -0.891755       0.0610068      -0.041157     
  7.25076950000E+07 -0.0222288      -0.0245285     -0.444999       -0.875966      -0.432875       -0.876938       0.0612334      -0.0442446    
  7.37576725000E+07 -0.0267181      -0.0230724     -0.475418       -0.857712      -0.463854       -0.860881       0.0612464      -0.0474953    
  7.50076500000E+07 -0.0309396      -0.0213294     -0.505725       -0.838546      -0.494861       -0.844417       0.0611369      -0.0510324    
  7.62576275000E+07 -0.0351588      -0.0192743     -0.53625        -0.819675      -0.524206       -0.82614        0.0607562      -0.0546577    
  7.75076050000E+07 -0.0392884      -0.0168314     -0.56451        -0.797826      -0.554002       -0.807425       0.0599906      -0.0584144    
  7.87575825000E+07 -0.0434013      -0.0143187     -0.591729       -0.77543       -0.583487       -0.787475       0.059074       -0.0623805    
  8.00075600000E+07 -0.0472632      -0.0113442     -0.619074       -0.753152      -0.612037       -0.766088       0.0577896      -0.066465     
  8.12575375000E+07 -0.0511472      -0.00837642    -0.645022       -0.729312      -0.639547       -0.743529       0.0562405      -0.0705206    
  8.25075150000E+07 -0.0546407      -0.00493121    -0.669797       -0.704051      -0.667787       -0.720985       0.0541462      -0.0746858    
  8.37574925000E+07 -0.0579618      -0.00137477    -0.694255       -0.679313      -0.694432       -0.696247       0.0517648      -0.0789647    
  8.50074700000E+07 -0.0613038       0.00231474    -0.717487       -0.653207      -0.720205       -0.670048       0.0488689      -0.0832281    
  8.62574475000E+07 -0.0644675       0.00624767    -0.739822       -0.626005      -0.7453         -0.642641       0.0456869      -0.0874386    
  8.75074250000E+07 -0.0674224       0.0103193     -0.761944       -0.598874      -0.76916        -0.614621       0.0419557      -0.0914947    
  8.87574025000E+07 -0.0699803       0.0146328     -0.782142       -0.571412      -0.792028       -0.585102       0.0378894      -0.095469     
  9.00073800000E+07 -0.0727037       0.0192274     -0.801484       -0.542596      -0.81396        -0.554683       0.0334464      -0.0993311    
  9.12573575000E+07 -0.0749437       0.0239304     -0.820241       -0.512995      -0.83466        -0.523596       0.0284255      -0.102808     
  9.25073350000E+07 -0.0768565       0.0286751     -0.838529       -0.483221      -0.853709       -0.491102       0.022991       -0.106204     
  9.37573125000E+07 -0.0787017       0.0338032     -0.855733       -0.452715      -0.871857       -0.457345       0.0171176      -0.109231     
  9.50072900000E+07 -0.0800998       0.0388859     -0.871546       -0.421352      -0.888722       -0.424017       0.0107108      -0.11188      
  9.62572675000E+07 -0.081209        0.0441992     -0.887411       -0.389143      -0.90337        -0.388622       0.00403016     -0.113952     
  9.75072450000E+07 -0.0821448       0.0496758     -0.902488       -0.356545      -0.917249       -0.352783      -0.00319962     -0.115637     
  9.87572225000E+07 -0.0826422       0.0551361     -0.915518       -0.322615      -0.929171       -0.316633      -0.0106332      -0.116766     
  1.00007200000E+08 -0.0826971       0.060575      -0.927032       -0.288144      -0.939501       -0.280146      -0.0183691      -0.117137     
  1.01257177500E+08 -0.0823409       0.0659809     -0.938483       -0.252863      -0.94869        -0.244121      -0.0263224      -0.116957     
  1.02507155000E+08 -0.0816364       0.0713729     -0.948217       -0.21719       -0.956022       -0.206858      -0.0343968      -0.116059     
  1.03757132500E+08 -0.0806772       0.0765601     -0.956121       -0.180312      -0.961992       -0.169453      -0.0425319      -0.114421     
  1.05007110000E+08 -0.0794372       0.0818965     -0.963732       -0.143015      -0.96618        -0.132229      -0.0506936      -0.111864     
  1.06257087500E+08 -0.0777806       0.0869354     -0.968629       -0.105763      -0.968777       -0.0945269     -0.0586753      -0.108673     
  1.07507065000E+08 -0.0756138       0.0917743     -0.971851       -0.0667368     -0.970982       -0.0575824     -0.0665414      -0.104675     
  1.08757042500E+08 -0.0733403       0.096333      -0.972989       -0.0286517     -0.971075       -0.0205045     -0.0740271      -0.0999949    
  1.10007020000E+08 -0.0707643       0.1009        -0.97401         0.00966339    -0.969594        0.0167641     -0.0812302      -0.0946141    
  1.11256997500E+08 -0.0679832       0.105112      -0.972291        0.048562      -0.967224        0.0535124     -0.0878457      -0.0883868    
  1.12506975000E+08 -0.0648661       0.109048      -0.969169        0.0875426     -0.963441        0.0901663     -0.0941986      -0.081521     
  1.13756952500E+08 -0.0616259       0.112903      -0.964596        0.124815      -0.958474        0.126624      -0.0999328      -0.0742211    
  1.15006930000E+08 -0.0579609       0.116242      -0.957962        0.16395       -0.952731        0.163009      -0.104882       -0.0662172    
  1.16256907500E+08 -0.0543252       0.119388      -0.949417        0.201299      -0.944945        0.198918      -0.109222       -0.0578134    
  1.17506885000E+08 -0.050298        0.122082      -0.939586        0.23785       -0.936302        0.23526       -0.112828       -0.0487632    
  1.18756862500E+08 -0.0461917       0.124465      -0.928097        0.274909      -0.92619         0.270553      -0.115611       -0.0395659    
  1.20006840000E+08 -0.0420704       0.126609      -0.915868        0.310817      -0.915237        0.306279      -0.117389       -0.0299734    
  1.21256817500E+08 -0.0377439       0.128337      -0.902072        0.346274      -0.902885        0.341791      -0.118398       -0.0201117    
  1.22506795000E+08 -0.0334183       0.129673      -0.887292        0.381309      -0.889563        0.377042      -0.118271       -0.0101502    
  1.23756772500E+08 -0.0288799       0.130538      -0.871139        0.415844      -0.873886        0.411563      -0.117116       -0.000281979  
  1.25006750000E+08 -0.0245171       0.13093       -0.853927        0.4492        -0.857546        0.446602      -0.114961        0.00950936   
  1.26256727500E+08 -0.0201988       0.131249      -0.835012        0.482591      -0.839734        0.480852      -0.112028        0.0190407    
  1.27506705000E+08 -0.0159734       0.130938      -0.815443        0.515815      -0.820961        0.514796      -0.107967        0.0282357    
  1.28756682500E+08 -0.0117372       0.130205      -0.794328        0.547802      -0.799094        0.548385      -0.102813        0.0368184    
  1.30006660000E+08 -0.0076774       0.12906       -0.771762        0.579395      -0.777125        0.580813      -0.0969815       0.044903     
  1.31256637500E+08 -0.00395356      0.127638      -0.748517        0.611339      -0.753037        0.613141      -0.0902441       0.0522479    
  1.32506615000E+08 -0.000222178     0.12608       -0.723788        0.641863      -0.727146        0.644919      -0.0830131       0.0589132    
  1.33756592500E+08  0.00310786      0.124051      -0.697359        0.67189       -0.699875        0.675038      -0.0748857       0.0644579    
  1.35006570000E+08  0.00619756      0.121574      -0.668699        0.70131       -0.671215        0.704937      -0.0664088       0.0693155    
  1.36256547500E+08  0.0092584       0.119031      -0.640048        0.729973      -0.640819        0.733913      -0.057375        0.0730273    
  1.37506525000E+08  0.011819        0.116016      -0.608839        0.75721       -0.608757        0.760544      -0.0481105       0.0757555    
  1.38756502500E+08  0.0141217       0.11288       -0.57527         0.784789      -0.576033        0.786312      -0.0386212       0.0774142    
  1.40006480000E+08  0.016205        0.109589      -0.541344        0.809469      -0.541185        0.810793      -0.0290154       0.0779388    
  1.41256457500E+08  0.0177497       0.105887      -0.505577        0.832375      -0.504677        0.833844      -0.0194657       0.0772896    
  1.42506435000E+08  0.0191805       0.102277      -0.467203        0.854756      -0.467476        0.855457      -0.00992999      0.0755826    
  1.43756412500E+08  0.0200095       0.098528      -0.429816        0.874879      -0.429851        0.875057      -0.00117134      0.0726688    
  1.45006390000E+08  0.0205095       0.094447      -0.389181        0.892749      -0.389996        0.89277        0.00743145      0.0686569    
  1.46256367500E+08  0.0206991       0.0904975     -0.347974        0.910295      -0.350061        0.908806       0.0152908       0.0636309    
  1.47506345000E+08  0.020263        0.086406      -0.306523        0.923692      -0.308295        0.92351        0.0224661       0.0576239    
  1.48756322500E+08  0.0194822       0.0823895     -0.263845        0.935186      -0.26686         0.935979       0.0287062       0.0507107    
  1.50006300000E+08  0.0183421       0.0784245     -0.220296        0.945523      -0.223622        0.946126       0.0338921       0.0431336    
  1.51256277500E+08  0.0166969       0.0745282     -0.177438        0.953357      -0.180586        0.954986       0.0379415       0.0350475    
  1.52506255000E+08  0.0147534       0.0708851     -0.133298        0.959666      -0.136911        0.961884       0.0408356       0.0263333    
  1.53756232500E+08  0.0124756       0.0674047     -0.0892055       0.963495      -0.0929281       0.966434       0.0424716       0.0176034    
  1.55006210000E+08  0.00979207      0.0641527     -0.0443864       0.964661      -0.0482457       0.969213       0.0430395       0.00867056   
  1.56256187500E+08  0.00677551      0.0613887     -0.000689181     0.965075      -0.00329293      0.970042       0.0422392       6.11045E-05  
  1.57506165000E+08  0.00367052      0.0588492      0.0435956       0.963406       0.0422132       0.968331       0.0401015      -0.00857639   
  1.58756142500E+08  0.000291229     0.0566354      0.0884215       0.959287       0.087897        0.965131       0.0370729      -0.0166346    
  1.60006120000E+08 -0.00309164      0.0547898      0.132681        0.95339        0.133084        0.959499       0.0328684      -0.0241284    
  1.61256097500E+08 -0.00677927      0.0531189      0.177208        0.945795       0.178923        0.951366       0.0276032      -0.0309383    
  1.62506075000E+08 -0.0103276       0.0521944      0.222336        0.936039       0.224366        0.941337       0.0215148      -0.0370022    
  1.63756052500E+08 -0.0138767       0.0513139      0.265933        0.924153       0.269718        0.929013       0.0146716      -0.0419025    
  1.65006030000E+08 -0.017275        0.0509213      0.309829        0.910075       0.314967        0.914393       0.00717399     -0.0458315    
  1.66256007500E+08 -0.0206047       0.0510365      0.354648        0.893515       0.359262        0.896844      -0.000749271    -0.0484405    
