!---------------------------------------------------------------------
! ZVRE, 3.52
!---------------------------------------------------------------------
! symbol freq-unit parameter-type data-format keyword impedance-ohm
#        HZ        S              RI          R       50
!---------------------------------------------------------------------
! freq                reS11          imS11           reS21          imS21           reS12          imS12           reS22          imS22           
  9.00000000000E+03  1.00537        -0.00595042     3.90943E-05    -0.000200981   -8.92931E-05    -1.7365E-05     1.00011        -2.64049E-05  
  1.25897750000E+06  0.999402       -0.017667       2.49078E-05     2.16316E-06    6.75281E-06    -2.43833E-05    0.99044        -0.121584     
  2.50895500000E+06  0.99909        -0.0362193      1.21055E-05    -1.74298E-05   -1.83305E-05     4.09932E-06    0.968626       -0.240273     
  3.75893250000E+06  0.998035       -0.054942       1.67001E-05    -1.66764E-05    7.97834E-07     1.28179E-05    0.932171       -0.355869     
  5.00891000000E+06  0.997238       -0.0730769      6.48963E-05    -7.13746E-06    4.39422E-05    -1.63304E-05    0.88143        -0.4665       
  6.25888750000E+06  0.9957         -0.0912526     -2.16512E-05    -1.98179E-05   -3.52986E-05    -6.03163E-06    0.817421       -0.569941     
  7.50886500000E+06  0.993991       -0.109591      -7.28663E-06    -3.12816E-05   -4.80933E-05    -8.76854E-06    0.741139       -0.665368     
  8.75884250000E+06  0.991676       -0.127883       2.21472E-05     1.28358E-05    8.03287E-07    -6.70581E-06    0.652536       -0.750908     
  1.00088200000E+07  0.989061       -0.14586        3.59141E-05     2.75415E-06   -8.11154E-06    -9.6214E-06     0.554147       -0.825134     
  1.12587975000E+07  0.986072       -0.164436      -2.20978E-05    -1.52474E-06    1.7222E-05     -5.31432E-07    0.446345       -0.886773     
  1.25087750000E+07  0.982662       -0.182668      -3.65086E-08    -2.82874E-07   -1.24332E-05    -2.47344E-05    0.330809       -0.934335     
  1.37587525000E+07  0.979242       -0.200863      -4.79575E-05    -2.87787E-05   -1.64858E-05     1.22659E-05    0.210384       -0.966553     
  1.50087300000E+07  0.975635       -0.219008      -4.2028E-05     -9.70263E-06   -4.76443E-06    -2.07929E-05    0.0844101      -0.984421     
  1.62587075000E+07  0.971402       -0.237226      -1.9024E-05      6.02255E-06    1.60555E-05     2.19125E-05   -0.0423427      -0.985313     
  1.75086850000E+07  0.966416       -0.254979       6.41748E-05     1.64438E-05   -4.59751E-06    -2.62356E-05   -0.168121       -0.969671     
  1.87586625000E+07  0.961603       -0.27352        5.80108E-06     1.05226E-05   -2.95192E-05     2.06207E-05   -0.29388        -0.936859     
  2.00086400000E+07  0.95656        -0.291248      -3.10909E-05     3.20938E-05    4.3891E-05     -4.18221E-05   -0.412559       -0.889118     
  2.12586175000E+07  0.950561       -0.309161       4.70487E-05     2.35212E-06   -2.58715E-05     3.06467E-05   -0.524576       -0.824943     
  2.25085950000E+07  0.944509       -0.32708        5.88194E-06    -4.7243E-07    -8.16386E-06    -2.98475E-05   -0.627476       -0.746573     
  2.37585725000E+07  0.938039       -0.344632      -1.76203E-05    -2.98656E-05   -2.81828E-05    -8.256E-06     -0.719467       -0.654888     
  2.50085500000E+07  0.93107        -0.362529      -6.37746E-05    -2.11215E-05   -1.42217E-05    -1.80711E-05   -0.798503       -0.551585     
  2.62585275000E+07  0.92392        -0.380037      -3.32834E-06    -5.16559E-05   -5.25962E-05     6.41835E-06   -0.863388       -0.438193     
  2.75085050000E+07  0.916388       -0.397898       3.05044E-05     2.71789E-05   -3.28954E-05     1.20032E-05   -0.912543       -0.31668      
  2.87584825000E+07  0.908247       -0.415102      -3.87649E-05     3.83502E-05   -5.94694E-05    -2.78497E-05   -0.94458        -0.191856     
  3.00084600000E+07  0.90011        -0.432576      -1.86819E-05     1.48107E-05   -5.35183E-05    -2.84518E-05   -0.959668       -0.062991     
  3.12584375000E+07  0.891936       -0.450154      -6.12343E-05    -9.50862E-06   -5.02644E-05     2.23852E-05   -0.957334        0.0661418    
  3.25084150000E+07  0.883257       -0.467234      -2.62849E-05     1.57264E-06   -3.60454E-05     4.17874E-05   -0.937835        0.19362      
  3.37583925000E+07  0.873683       -0.484179      -2.01846E-05    -2.17469E-05   -1.91629E-05     7.74887E-06   -0.901498        0.317198     
  3.50083700000E+07  0.864346       -0.501461      -4.29186E-05     3.80689E-05   -2.64324E-05    -6.10301E-06   -0.849353        0.4336       
  3.62583475000E+07  0.854105       -0.518327      -4.03032E-05    -1.03388E-05   -3.76807E-05    -2.51205E-05   -0.782519        0.542095     
  3.75083250000E+07  0.843235       -0.535233      -6.70431E-06    -1.90827E-05   -4.91383E-05    -1.39197E-05   -0.702592        0.639893     
  3.87583025000E+07  0.832239       -0.55169       -3.43051E-05     6.65508E-06   -4.95552E-05     4.84967E-05   -0.610798        0.726338     
  4.00082800000E+07  0.821148       -0.568785      -4.85757E-05     3.42828E-05   -8.91492E-05     3.61491E-05   -0.509235        0.798916     
  4.12582575000E+07  0.809496       -0.584827      -5.92198E-05     3.46188E-05   -9.46503E-05     1.66128E-05   -0.399469        0.857945     
  4.25082350000E+07  0.797151       -0.600951      -5.4957E-05      7.08972E-06   -9.20668E-05     3.81962E-05   -0.283714        0.901453     
  4.37582125000E+07  0.785037       -0.61715       -6.35823E-05     6.05461E-05   -9.04288E-05     5.85076E-05   -0.163277        0.930077     
  4.50081900000E+07  0.772088       -0.633102      -0.000101317     3.58947E-05   -5.52296E-05     0.000118689   -0.0417181       0.942373     
  4.62581675000E+07  0.758429       -0.649077      -5.67741E-05     4.88704E-05   -7.96302E-05     6.31745E-05    0.0801447       0.939076     
  4.75081450000E+07  0.744404       -0.664924      -8.91834E-05     7.08176E-05   -0.000120907     8.38711E-05    0.200773        0.920109     
  4.87581225000E+07  0.730603       -0.679958      -0.000123717     8.02977E-05   -0.000154512     8.98183E-05    0.317007        0.885271     
  5.00081000000E+07  0.715724       -0.695381      -9.38566E-05     0.000107983   -0.000145415     0.000141036    0.428049        0.836755     
  5.12580775000E+07  0.700696       -0.709996      -8.73573E-05     0.000107671   -0.00014203      0.000153739    0.53136         0.774143     
  5.25080550000E+07  0.685258       -0.725139      -0.0001326       0.000123067   -0.000131354     0.000136594    0.626291        0.698669     
  5.37580325000E+07  0.668334       -0.738977      -0.000209225     0.000202112   -0.00013055      0.000201746    0.710415        0.611712     
  5.50080100000E+07  0.652074       -0.754099      -0.00021635      0.000236403   -0.000138296     0.000277314    0.782703        0.514189     
  5.62579875000E+07  0.635845       -0.767899      -0.000168821     0.000265496   -0.000150719     0.000258302    0.842307        0.407895     
  5.75079650000E+07  0.617983       -0.7816        -0.000148019     0.000324746   -0.000100239     0.000358959    0.887004        0.294355     
  5.87579425000E+07  0.600265       -0.795197      -0.0001673       0.000393351   -0.00011093      0.000418476    0.917522        0.175262     
  6.00079200000E+07  0.582082       -0.808468      -0.000152555     0.000502066   -0.000140075     0.000470033    0.931713        0.0530944    
  6.12578975000E+07  0.562444       -0.821379      -0.000132014     0.000599405   -9.04408E-05     0.000549647    0.929519       -0.0709288    
  6.25078750000E+07  0.543454       -0.834198      -0.000102302     0.000619952   -7.85662E-05     0.000595507    0.910895       -0.194273     
  6.37578525000E+07  0.523706       -0.84631       -6.40448E-05     0.000718891   -8.59666E-05     0.000681062    0.875615       -0.314208     
  6.50078300000E+07  0.503115       -0.85847       -2.47041E-06     0.000807555    2.10994E-05     0.000766448    0.823571       -0.429539     
  6.62578075000E+07  0.482732       -0.870132       3.62662E-05     0.000936658    3.81334E-05     0.000871732    0.756853       -0.537138     
  6.75077850000E+07  0.461441       -0.881708       0.000162106     0.00103719     0.000106931     0.000936642    0.675324       -0.635576     
  6.87577625000E+07  0.439224       -0.892036       0.000191231     0.0011195      0.000170478     0.001094       0.580725       -0.721773     
  7.00077400000E+07  0.416998       -0.902521       0.000292949     0.00122127     0.000277421     0.0012202      0.473623       -0.7937       
  7.12577175000E+07  0.393948       -0.912937       0.000409289     0.00133711     0.000405214     0.00138213     0.358704       -0.852763     
  7.25076950000E+07  0.370461       -0.921738       0.000484654     0.00150316     0.00054337      0.00147232     0.235354       -0.894253     
  7.37576725000E+07  0.34587        -0.931285       0.000671304     0.00165661     0.000668059     0.00165331     0.107264       -0.91767      
  7.50076500000E+07  0.321464       -0.93966        0.000814878     0.00180016     0.000910627     0.00182994    -0.023007       -0.923052     
  7.62576275000E+07  0.29654        -0.947537       0.00101927      0.00199501     0.00115448      0.00203036    -0.152986       -0.910057     
  7.75076050000E+07  0.270658       -0.954557       0.00124364      0.00223355     0.00135911      0.00217888    -0.279547       -0.878679     
  7.87575825000E+07  0.243895       -0.961812       0.00148936      0.00249224     0.00168016      0.00239309    -0.400315       -0.830505     
  8.00075600000E+07  0.217515       -0.967881       0.00185058      0.00276289     0.00206756      0.00261028    -0.512566       -0.766235     
  8.12575375000E+07  0.190455       -0.973216       0.00228742      0.00311306     0.00245695      0.00278567    -0.614076       -0.686843     
  8.25075150000E+07  0.161811       -0.977658       0.00272498      0.00339708     0.00290603      0.00300322    -0.703336       -0.59485      
  8.37574925000E+07  0.133227       -0.98143        0.00348132      0.00370847     0.00349924      0.00321703    -0.778955       -0.492176     
  8.50074700000E+07  0.104258       -0.985141       0.00417015      0.00402477     0.00415945      0.00342165    -0.839339       -0.38074      
  8.62574475000E+07  0.0745012      -0.987393       0.00512048      0.0042803      0.00493896      0.00358343    -0.88317        -0.263227     
  8.75074250000E+07  0.0442757      -0.988777       0.00620101      0.00452088     0.0057518       0.00376931    -0.910946       -0.141584     
  8.87574025000E+07  0.0129484      -0.989213       0.0074378       0.00463029     0.00670822      0.00383889    -0.922228       -0.0187455    
  9.00073800000E+07 -0.0188495      -0.988896       0.00883251      0.00465448     0.00783962      0.00389033    -0.916419        0.103605     
  9.12573575000E+07 -0.0504967      -0.986931       0.0104034       0.00435026     0.0091876       0.00394206    -0.895064        0.223371     
  9.25073350000E+07 -0.0829743      -0.98418        0.0121238       0.00395298     0.0106417       0.00379418    -0.858513        0.338421     
  9.37573125000E+07 -0.116185       -0.980556       0.0140263       0.00328976     0.0123609       0.0035235     -0.807141        0.447256     
  9.50072900000E+07 -0.149726       -0.9753         0.0160182       0.00240285     0.0142531       0.00316788    -0.742674        0.548111     
  9.62572675000E+07 -0.184159       -0.969361       0.0181579       0.00123861     0.0162997       0.00251277    -0.665514        0.63946      
  9.75072450000E+07 -0.219489       -0.961112       0.0203793      -0.000240741    0.0188018       0.00146305    -0.577272        0.719883     
  9.87572225000E+07 -0.254659       -0.95241        0.0225675      -0.00212106     0.0213949       0.000282821   -0.479336        0.787823     
  1.00007200000E+08 -0.290433       -0.940504       0.0248582      -0.00423865     0.0242422      -0.00149949    -0.372957        0.842712     
  1.01257177500E+08 -0.326562       -0.928105       0.0272802      -0.00678497     0.0274535      -0.00355578    -0.259509        0.883309     
  1.02507155000E+08 -0.363873       -0.91385        0.0296998      -0.00983165     0.0307164      -0.00661558    -0.140323        0.908611     
  1.03757132500E+08 -0.400527       -0.896828       0.0323826      -0.0131142      0.0341966      -0.0101971     -0.0179005       0.918194     
  1.05007110000E+08 -0.436856       -0.877881       0.0349744      -0.0172301      0.0379134      -0.0146984      0.107015        0.910218     
  1.06257087500E+08 -0.474441       -0.857015       0.0377344      -0.0219147      0.0414753      -0.0202256      0.231268        0.884794     
  1.07507065000E+08 -0.511965       -0.834255       0.0407713      -0.0276886      0.0449504      -0.0269962      0.353829        0.840123     
  1.08757042500E+08 -0.548948       -0.808455       0.0436579      -0.034314       0.048022       -0.0350482      0.470716        0.777525     
  1.10007020000E+08 -0.586092       -0.780088       0.046425       -0.0422365      0.050559       -0.0445887      0.580208        0.694806     
  1.11256997500E+08 -0.622898       -0.748934       0.0490284      -0.0521739      0.0523339      -0.0557603      0.67787         0.593676     
  1.12506975000E+08 -0.658812       -0.714196       0.0508763      -0.0638776      0.0528695      -0.0688255      0.76117         0.473088     
  1.13756952500E+08 -0.693714       -0.675844       0.051687       -0.0780189      0.0516308      -0.0834774      0.825347        0.335963     
  1.15006930000E+08 -0.728153       -0.634425       0.0504145      -0.0947984      0.0482547      -0.100065       0.865085        0.18411      
  1.16256907500E+08 -0.759971       -0.589847       0.046279       -0.114116       0.0419272      -0.118498       0.877575        0.0206026    
  1.17506885000E+08 -0.790558       -0.541087       0.0382033      -0.135937       0.0318906      -0.138083       0.857102       -0.148972     
  1.18756862500E+08 -0.817554       -0.487969       0.0245765      -0.159166       0.0176286      -0.158388       0.800377       -0.317443     
  1.20006840000E+08 -0.841835       -0.430978       0.00438928     -0.183086      -0.00181441     -0.178957       0.707201       -0.475252     
  1.21256817500E+08 -0.86239        -0.37145       -0.0226995      -0.205484      -0.0269791      -0.198718       0.575836       -0.613451     
  1.22506795000E+08 -0.87735        -0.307536      -0.0571839      -0.224377      -0.0581055      -0.216235       0.412557       -0.720611     
  1.23756772500E+08 -0.887525       -0.240509      -0.0983828      -0.237657      -0.0955394      -0.229701       0.224739       -0.787634     
  1.25006750000E+08 -0.891592       -0.171125      -0.144684       -0.243897      -0.138863       -0.23803        0.0239153      -0.807081     
  1.26256727500E+08 -0.888997       -0.100554      -0.194837       -0.241807      -0.187376       -0.238839      -0.176575       -0.774988     
  1.27506705000E+08 -0.879876       -0.0283704     -0.247371       -0.231027      -0.240082       -0.231393      -0.361625       -0.694188     
  1.28756682500E+08 -0.862372        0.0448553     -0.300779       -0.211269      -0.295025       -0.213632      -0.51693        -0.570117     
  1.30006660000E+08 -0.836676        0.116051      -0.353771       -0.182187      -0.350631       -0.185029      -0.632047       -0.414176     
  1.31256637500E+08 -0.803532        0.186151      -0.406913       -0.142479      -0.404919       -0.144758      -0.701036       -0.239557     
  1.32506615000E+08 -0.761933        0.253645      -0.457681       -0.0919503     -0.455435       -0.0925661     -0.721853       -0.0613928    
  1.33756592500E+08 -0.712017        0.316587      -0.503684       -0.0281073     -0.499678       -0.0281387     -0.697336        0.108731     
  1.35006570000E+08 -0.653506        0.373751      -0.542125        0.0484728     -0.535514        0.0480878     -0.635151        0.259209     
  1.36256547500E+08 -0.587531        0.423656      -0.569305        0.137668      -0.560066        0.134873      -0.541961        0.381179     
  1.37506525000E+08 -0.514847        0.464641      -0.579072        0.238149      -0.569405        0.230434      -0.429011        0.471015     
  1.38756502500E+08 -0.4369          0.494566      -0.569134        0.346281      -0.561373        0.332763      -0.304824        0.526012     
  1.40006480000E+08 -0.355488        0.51278       -0.536413        0.455521      -0.533567        0.437836      -0.179201        0.546924     
  1.41256457500E+08 -0.27263         0.517847      -0.480472        0.560752      -0.484069        0.541169      -0.061122        0.536953     
  1.42506435000E+08 -0.190989        0.50923       -0.40115         0.65554       -0.413454        0.637457       0.0435955       0.499981     
  1.43756412500E+08 -0.114926        0.486962      -0.304617        0.734062      -0.322784        0.720954       0.128669        0.442332     
  1.45006390000E+08 -0.0462305       0.452287      -0.193665        0.7919        -0.215537        0.787217       0.191431        0.370899     
  1.46256367500E+08  0.0110516       0.408028      -0.0747484       0.82954       -0.0974089       0.832412       0.230213        0.292877     
  1.47506345000E+08  0.0554374       0.356903       0.0459444       0.845431       0.0279224       0.856048       0.24668         0.214885     
  1.48756322500E+08  0.0856484       0.302973       0.166039        0.841411       0.153562        0.856995       0.243465        0.142469     
  1.50006300000E+08  0.102693        0.249993       0.282139        0.820429       0.276361        0.837386       0.224236        0.0799941    
  1.51256277500E+08  0.107672        0.201181       0.391111        0.783333       0.392085        0.79936        0.194246        0.0297748    
  1.52506255000E+08  0.103282        0.158978       0.493776        0.732849       0.49879         0.746315       0.157601       -0.00755064   
  1.53756232500E+08  0.0921119       0.124803       0.58584         0.67066        0.595126        0.679288       0.118175       -0.032623     
  1.55006210000E+08  0.0769717       0.0993893      0.670083        0.596036       0.679453        0.601287       0.0790681      -0.0467034    
  1.56256187500E+08  0.0601846       0.0822391      0.74236         0.513442       0.751769        0.514712       0.042522       -0.0515649    
  1.57506165000E+08  0.0441634       0.0727938      0.803652        0.422287       0.811762        0.420425       0.00956585     -0.0490049    
  1.58756142500E+08  0.0305125       0.0698533      0.851864        0.326474       0.858306        0.321255      -0.0185197      -0.0410017    
  1.60006120000E+08  0.0205888       0.0716285      0.88752         0.224527       0.891426        0.218354      -0.0418412      -0.0289673    
  1.61256097500E+08  0.0150231       0.0769619      0.911086        0.120806       0.910924        0.114239      -0.0601722      -0.0144256    
  1.62506075000E+08  0.0140326       0.0837248      0.921015        0.0165087      0.918866        0.00983663    -0.0738971       0.00132179   
  1.63756052500E+08  0.0178038       0.0908161      0.917561       -0.0876075      0.913533       -0.0930276     -0.0832826       0.0173342    
  1.65006030000E+08  0.0254774       0.0967897      0.903527       -0.188904       0.897106       -0.192981      -0.089179        0.0331463    
  1.66256007500E+08  0.0363985       0.100366       0.877401       -0.287135       0.868912       -0.288228      -0.0918305       0.0480652    
